
SetupTitle, Id-Vgs
PrimitiveTest, I/V Sweep
TestParameter, Context.MainFrame, B1500A
TestParameter, Channel.UnitType, SMU, SMU, SMU
TestParameter, Channel.Unit, SMU1:MP, SMU4:MP, SMU5:MP
TestParameter, Channel.IName, Is, Id, Ig
TestParameter, Channel.VName, Vs, Vds, Vgs
TestParameter, Channel.Mode, V, V, V
TestParameter, Channel.Func, CONST, VAR2, VAR1
TestParameter, Channel.Index, 
TestParameter, Channel.Time, 
TestParameter, Measurement.Port.Unit, SMU1:MP, SMU4:MP, SMU5:MP
TestParameter, Measurement.Port.SeriesResistor, NONE, NONE, NONE
TestParameter, Measurement.Port.Filter, ON, ON, ON
TestParameter, Measurement.Port.OutputVoltageComparison, 0, 0, 0
TestParameter, Measurement.Primary.Locus, Double
TestParameter, Measurement.Primary.Scale, LINEAR
TestParameter, Measurement.Primary.Start, 40
TestParameter, Measurement.Primary.Stop, -40
TestParameter, Measurement.Primary.Step, -0.8
TestParameter, Measurement.Primary.Compliance, 1E-06
TestParameter, Measurement.Primary.PowerCompliance, 0
TestParameter, Measurement.Aborting.Condition, CONTINUE AT ANY
TestParameter, Measurement.PostOutput.Value, START
TestParameter, Measurement.PostOutput.Retention, OFF
TestParameter, Measurement.Secondary.Start, -1
TestParameter, Measurement.Secondary.Count, 1
TestParameter, Measurement.Secondary.Step, -0.5
TestParameter, Measurement.Secondary.Compliance, 0.0005
TestParameter, Measurement.Secondary.PowerCompliance, 0
TestParameter, Measurement.Bias.Source, 0, -1, 40
TestParameter, Measurement.Bias.Compliance, 0.1, 0.0005, 1E-06
TestParameter, Measurement.Monitor.Unit, SMU1:MP, SMU4:MP, SMU5:MP
TestParameter, Measurement.Monitor.Adc, HR ADC, HR ADC, HR ADC
TestParameter, Measurement.Monitor.Measurement, Compliance Side, Compliance Side, Compliance Side
TestParameter, Measurement.Monitor.RangingMode, LIMITED, LIMITED, LIMITED
TestParameter, Measurement.Monitor.RangeBoundary, 1nA, 1nA, 1nA
TestParameter, Measurement.Monitor.RangeRating, BY FULL RANGE, BY FULL RANGE, BY FULL RANGE
TestParameter, Measurement.Monitor.RangeRatingCoeff, 50, 50, 50
TestParameter, Measurement.Timing.Hold, 0
TestParameter, Measurement.Timing.Delay, 0
TestParameter, Measurement.Adc.HighSpeed.Mode, AUTO
TestParameter, Measurement.Adc.HighSpeed.Coeff, 1
TestParameter, Measurement.Adc.HighResolution.AutoZero, OFF
TestParameter, Measurement.Adc.HighResolution.Mode, AUTO
TestParameter, Measurement.Adc.HighResolution.Coeff, 4
TestParameter, Measurement.WaitTime.Source.Coeff, 1
TestParameter, Measurement.WaitTime.Source.Offset, 0
TestParameter, Measurement.WaitTime.Monitor.Coeff, 1
TestParameter, Measurement.WaitTime.Monitor.Offset, 0
TestParameter, Function.User.Name, R, gm
TestParameter, Function.User.Unit, Ohms, S
TestParameter, Function.User.Definition, Vds/Id, delta(Id)/delta(Vgs)
TestParameter, Output.Graph.Enabled, true
TestParameter, Output.Graph.XAxis.Data, Vgs
TestParameter, Output.Graph.XAxis.Scale, Linear
TestParameter, Output.Graph.XAxis.Left, -50
TestParameter, Output.Graph.XAxis.Right, 50
TestParameter, Output.Graph.YAxis.Data, Id, Is, Ig
TestParameter, Output.Graph.YAxis.Scale, Log, Log, Log
TestParameter, Output.Graph.YAxis.Bottom, -1E-13, 1E-13, 1E-11
TestParameter, Output.Graph.YAxis.Top, -2E-05, 2E-05, 1E-07
TestParameter, Output.Graph.YAxis.Group, , , 
TestParameter, Output.List.Data, Vgs, Vds, Id, Is, Ig, R, gm
TestParameter, AutoAnalysis.Interpolation, false
TestParameter, AutoAnalysis.Line1.Enabled, false
TestParameter, AutoAnalysis.Line1.Type, 1
TestParameter, AutoAnalysis.Line1.Fix, True
TestParameter, AutoAnalysis.Line1.YAxis, 0
TestParameter, AutoAnalysis.Line1.Point1.Type, 0
TestParameter, AutoAnalysis.Line1.Point1.XY.X, 
TestParameter, AutoAnalysis.Line1.Point1.XY.Y, 
TestParameter, AutoAnalysis.Line1.Point1.Data.Var, 
TestParameter, AutoAnalysis.Line1.Point1.Data.Condition, 
TestParameter, AutoAnalysis.Line1.Point1.Data.Start, false
TestParameter, AutoAnalysis.Line1.Point1.Data.StartVar, 
TestParameter, AutoAnalysis.Line1.Point1.Data.StartCondition, 
TestParameter, AutoAnalysis.Line1.Point2.Type, 0
TestParameter, AutoAnalysis.Line1.Point2.XY.X, 
TestParameter, AutoAnalysis.Line1.Point2.XY.Y, 
TestParameter, AutoAnalysis.Line1.Point2.Data.Var, 
TestParameter, AutoAnalysis.Line1.Point2.Data.Condition, 
TestParameter, AutoAnalysis.Line1.Point2.Data.Start, false
TestParameter, AutoAnalysis.Line1.Point2.Data.StartVar, 
TestParameter, AutoAnalysis.Line1.Point2.Data.StartCondition, 
TestParameter, AutoAnalysis.Line1.GradientExpr, 0
TestParameter, AutoAnalysis.Line2.Enabled, false
TestParameter, AutoAnalysis.Line2.Type, 1
TestParameter, AutoAnalysis.Line2.Fix, True
TestParameter, AutoAnalysis.Line2.YAxis, 0
TestParameter, AutoAnalysis.Line2.Point1.Type, 0
TestParameter, AutoAnalysis.Line2.Point1.XY.X, 
TestParameter, AutoAnalysis.Line2.Point1.XY.Y, 
TestParameter, AutoAnalysis.Line2.Point1.Data.Var, 
TestParameter, AutoAnalysis.Line2.Point1.Data.Condition, 
TestParameter, AutoAnalysis.Line2.Point1.Data.Start, false
TestParameter, AutoAnalysis.Line2.Point1.Data.StartVar, 
TestParameter, AutoAnalysis.Line2.Point1.Data.StartCondition, 
TestParameter, AutoAnalysis.Line2.Point2.Type, 0
TestParameter, AutoAnalysis.Line2.Point2.XY.X, 
TestParameter, AutoAnalysis.Line2.Point2.XY.Y, 
TestParameter, AutoAnalysis.Line2.Point2.Data.Var, 
TestParameter, AutoAnalysis.Line2.Point2.Data.Condition, 
TestParameter, AutoAnalysis.Line2.Point2.Data.Start, false
TestParameter, AutoAnalysis.Line2.Point2.Data.StartVar, 
TestParameter, AutoAnalysis.Line2.Point2.Data.StartCondition, 
TestParameter, AutoAnalysis.Line2.GradientExpr, 0
TestParameter, AutoAnalysis.Marker.Enabled, false
TestParameter, AutoAnalysis.Marker.Data.Var, 
TestParameter, AutoAnalysis.Marker.Data.Condition, 
TestParameter, AutoAnalysis.Marker.Data.Start, false
TestParameter, AutoAnalysis.Marker.Data.StartVar, 
TestParameter, AutoAnalysis.Marker.Data.StartCondition, 
MetaData, TestRecord.EntryPoint, true
MetaData, TestRecord.RecordTime, 02/28/2018 02:44:23
MetaData, TestRecord.TestTarget, 180207S5_d4_r2_lch100
MetaData, TestRecord.IterationIndex, 93
MetaData, TestRecord.Preservation, true
MetaData, TestRecord.Flag, ?
MetaData, TestRecord.Remarks, 
MetaData, TestRecord.LinkKey, a50cdcb1-1e96-4f66-bdfb-fa5f2745863f
Dimension1, 202, 202, 202, 202, 202, 202, 202
Dimension2, 1, 1, 1, 1, 1, 1, 1
DataName, Vgs, Vds, Is, Id, Ig, R, gm
DataValue, 40, -1, 2.3525E-09, -1.3866E-09, 3.492E-08, 721188518.6787827, -4.2837500000000133E-10
DataValue, 39.2, -1, -1.187E-10, -1.0439E-09, 3.0179999999999996E-08, 957946163.42561543, -1.1350624999999989E-09
DataValue, 38.4, -1, -1.2783E-09, 4.295E-10, -1.4442599999999999E-08, -2328288707.799767, -1.6556249999999986E-09
DataValue, 37.6, -1, 1.978E-10, 1.6051E-09, -2.646E-08, -623014142.421033, 1.5038125000000051E-09
DataValue, 36.800000000000004, -1, 1.0276E-09, -1.9766E-09, 1.8741399999999997E-08, 505919255.28685623, 2.6341874999999979E-09
DataValue, 36, -1, -4.432E-10, -2.6096E-09, -1.5713199999999997E-08, 383200490.49662781, -2.6114999999999974E-09
DataValue, 35.2, -1, 2.482E-10, 2.2018E-09, -2.72E-08, -454173857.75274777, -9.1293749999999926E-10
DataValue, 34.4, -1, 9.665E-10, -1.1489E-09, -3.1399999999999997E-08, 870397771.78170419, 2.4584999999999977E-09
DataValue, 33.6, -1, -1.669E-10, -1.7318E-09, -3.13E-08, 577433883.82030261, 2.488124999999997E-10
DataValue, 32.8, -1, -2.912E-10, -1.547E-09, 1.6277199999999998E-08, 646412411.11829352, 2.5718749999999969E-10
DataValue, 32, -1, -2.309E-10, -2.1433E-09, 3.022E-08, 466570242.14995569, -2.2001250000000033E-09
DataValue, 31.2, -1, 3.366E-10, 1.9732E-09, -1.60868E-08, -506790999.39185077, -2.9377500000000038E-09
DataValue, 30.400000000000002, -1, 1.726E-10, 2.5571E-09, 1.1851199999999999E-08, -391068006.72636968, 2.4873750000000039E-09
DataValue, 29.6, -1, -1.02E-10, -2.0066E-09, 3.208E-08, 498355427.09060097, 1.0154999999999992E-09
DataValue, 28.8, -1, 1.918E-10, 9.323E-10, 1.8307999999999998E-08, -1072616110.6939826, 1.559999999999999E-10
DataValue, 28, -1, 1.0504E-09, -2.2562E-09, 2.588E-08, 443223118.51786184, -2.1437499999999979E-10
DataValue, 27.2, -1, -8.144E-10, 1.2753E-09, -1.8926999999999998E-08, -784129224.496197, -2.7821250000000036E-09
DataValue, 26.400000000000002, -1, -9.309E-10, 2.1952E-09, -1.4908E-07, -455539358.60058308, 2.4184375000000035E-09
DataValue, 25.6, -1, -3.3995E-09, -2.5942E-09, -1.8691599999999998E-08, 385475291.03384471, -4.87499999999994E-12
DataValue, 24.8, -1, -9.933E-10, 2.203E-09, -1.5714E-07, -453926463.91284615, -2.0625000000000103E-11
DataValue, 24, -1, -3.0659E-09, -2.5612E-09, -1.96422E-08, 390441980.32172424, -6.0687499999999952E-11
DataValue, 23.2, -1, -7.624E-10, 2.3001E-09, 1.67354E-08, -434763705.92582935, -1.4237500000000017E-10
DataValue, 22.400000000000002, -1, -2.288E-10, -2.3334E-09, 2.692E-08, 428559184.02331364, 7.01187500000001E-10
DataValue, 21.6, -1, -1.014E-09, 1.1782E-09, 3.144E-08, -848752334.0689187, -2.009062499999998E-09
DataValue, 20.8, -1, 1.434E-10, 8.811E-10, 3.06E-08, -1134944955.1696744, -4.2618749999999967E-10
DataValue, 20, -1, 3.02E-10, 1.8601E-09, 2.93E-08, -537605505.080372, -5.1637499999999957E-10
DataValue, 19.2, -1, 4.091E-10, 1.7073E-09, -1.48888E-08, -585720142.91571486, -3.7250000000000037E-10
DataValue, 18.400000000000002, -1, 3.17E-10, 2.4561E-09, -3.074E-08, -407149546.02825624, 1.9740000000000029E-09
DataValue, 17.6, -1, -2.952E-10, -1.4511E-09, 1.6032799999999998E-08, 689132382.33064568, 2.9109999999999971E-09
DataValue, 16.8, -1, -1.448E-10, -2.2015E-09, 2.978E-08, 454235748.35339546, -2.0307499999999982E-09
DataValue, 16, -1, 4.188E-10, 1.7981E-09, -1.4971E-08, -556142594.961348, -2.9894375000000004E-09
DataValue, 15.200000000000001, -1, 1.62E-10, 2.5816E-09, -3.164E-08, -387356678.02912927, 2.2859375000000005E-09
DataValue, 14.4, -1, -2.4109999999999997E-10, -1.8594E-09, -3.05E-08, 537807895.01989889, 3.0059374999999972E-09
DataValue, 13.6, -1, -2.2682E-09, -2.2279E-09, 2.9559999999999998E-08, 448853180.12478113, -2.8044375000000003E-09
DataValue, 12.8, -1, 3.05E-11, 2.6277E-09, -3.206E-08, -380560946.83563572, -1.58125000000002E-11
DataValue, 12, -1, -2.2355E-09, -2.2026E-09, 3.054E-08, 454008898.57441211, -2.2750000000000005E-11
DataValue, 11.200000000000001, -1, 1.408E-10, 2.6641E-09, -3.184E-08, -375361285.23704064, -2.8187499999999992E-10
DataValue, 10.4, -1, -1.572E-10, -1.7516E-09, -3.132E-08, 570906599.68029225, 3.0212499999999976E-09
DataValue, 9.6, -1, -2.2756E-09, -2.1699E-09, 3.076E-08, 460850730.44840771, -2.8102500000000003E-09
DataValue, 8.8, -1, 4.2504E-09, 2.7448E-09, -3.206E-08, -364325269.60069954, -1.7875000000000058E-11
DataValue, 8, -1, -4.3532E-09, -2.1413E-09, 3.18E-08, 467006024.37771446, -1.0500000000000116E-11
DataValue, 7.2, -1, 4.207E-09, 2.7616E-09, -3.1959999999999996E-08, -362108922.363847, -2.3124999999999343E-12
DataValue, 6.4, -1, -2.4725E-09, -2.1376E-09, 3.174E-08, 467814371.257485, -1.2124999999999845E-11
DataValue, 5.6000000000000005, -1, 4.3194E-09, 2.781E-09, -3.208E-08, -359582883.85472852, -1.9875000000000145E-11
DataValue, 4.8, -1, -2.4083E-09, -2.1058E-09, 3.166E-08, 474878905.8790009, 1.0125E-11
DataValue, 4, -1, 2.6683E-09, 2.7648E-09, -3.1399999999999997E-08, -361689814.81481487, -1.2374999999999922E-11
DataValue, 3.2, -1, -2.5289E-09, -2.086E-09, 3.142E-08, 479386385.42665386, 3.438125E-10
DataValue, 2.4, -1, 2.8701E-09, 2.2147E-09, 6.0437999999999993E-09, -451528423.71427286, -1.7728125000000002E-09
DataValue, 1.6, -1, 8.57E-10, 7.505E-10, -3.096E-08, -1332445036.6422384, 2.6498125E-09
DataValue, 0.8, -1, -2.5609E-09, -2.025E-09, 3.134E-08, 493827160.49382716, -1.0569375E-09
DataValue, 0, -1, 2.6594E-09, 2.4416E-09, 9.988E-09, -409567496.72346, -3.0228750000000003E-09
DataValue, -0.8, -1, 8.901E-10, 2.8116E-09, 1.80098E-08, -355669369.75387681, 1.0486874999999999E-09
DataValue, -1.6, -1, 8.439E-10, 7.637E-10, -3.092E-08, -1309414691.6328402, 1.7785625000000003E-09
DataValue, -2.4, -1, -4.4685E-09, -3.41E-11, -8.2839999999999993E-08, 29325513196.480942, 1.6540625E-09
DataValue, -3.2, -1, -3.9311E-09, -1.8828E-09, 1.4304E-07, 531123858.08370507, -1.1506875E-09
DataValue, -4, -1, 3.4517E-09, 1.807E-09, 1.39E-07, -553403431.10127282, -1.3955000000000002E-09
DataValue, -4.8, -1, 7.187E-10, 3.5E-10, -1.83226E-08, -2857142857.1428571, 2.2474999999999991E-09
DataValue, -5.6000000000000005, -1, -4.1314E-09, -1.789E-09, 3.138E-08, 558971492.45388484, -1.6209999999999997E-09
DataValue, -6.4, -1, 4.182E-09, 2.9436E-09, -2.9279999999999998E-08, -339720070.66177469, 1.1437500000000022E-11
DataValue, -7.2, -1, -3.7863E-09, -1.8073E-09, 1.6712E-07, 553311569.74492335, 9.9900000000000017E-10
DataValue, -8, -1, 3.2737E-09, 1.3452E-09, 8.036E-08, -743383883.437407, -2.2628124999999991E-09
DataValue, -8.8, -1, 2.6442E-09, 1.8132E-09, 1.4242E-07, -551511140.5250386, 1.3922500000000002E-09
DataValue, -9.6, -1, 6.829E-10, -8.824E-10, 1.8938199999999998E-08, 1133272892.1124208, 5.90375E-10
DataValue, -10.4, -1, 7.875E-10, 8.686E-10, -3.136E-08, -1151277918.4895234, 6.1149999999999949E-10
DataValue, -11.200000000000001, -1, -2.4762E-09, -1.8608E-09, 3.122E-08, 537403267.41186583, -1.2537500000000001E-09
DataValue, -12, -1, 1.9917E-09, 2.8746E-09, -1.53E-07, -347874486.88513184, 1.512499999999999E-11
DataValue, -12.8, -1, -3.0134E-09, -1.885E-09, -2.1734399999999996E-08, 530503978.77984083, 2.8110625000000008E-09
DataValue, -13.6, -1, -3.588E-09, -1.6231E-09, 1.6985399999999998E-08, 616104984.289323, -1.8262500000000004E-09
DataValue, -14.4, -1, 1.1217E-09, 1.037E-09, 2.09358E-08, -964320154.2912246, -1.5831249999999985E-09
DataValue, -15.200000000000001, -1, 5.287E-10, 9.099E-10, -1.7326E-07, -1099021870.5352237, 1.6912500000000003E-09
DataValue, -16, -1, -3.8242E-09, -1.669E-09, 1.6092E-07, 599161174.35590172, -3.2831250000000005E-10
DataValue, -16.8, -1, 3.5253E-09, 1.4352E-09, 8.246E-08, -696767001.11482728, -1.8722499999999984E-09
DataValue, -17.6, -1, 4.5862E-09, 1.3266E-09, 2.474E-08, -753806723.95597768, -7.0749999999999924E-11
DataValue, -18.400000000000002, -1, 3.0598E-09, 1.5484E-09, 4.974E-08, -645827951.43373811, 6.3193750000000085E-10
DataValue, -19.2, -1, 6.661E-10, 3.155E-10, -1.3370799999999999E-08, -3169572107.7654519, 1.8875625000000025E-09
DataValue, -20, -1, -1.3137E-09, -1.4717E-09, 1.9649E-08, 679486308.3508867, -4.2199999999999958E-10
DataValue, -20.8, -1, 6.889E-10, 9.907E-10, -3.244E-08, -1009387301.9077421, 1.593749999999999E-10
DataValue, -21.6, -1, -2.4303E-09, -1.7267E-09, 3.1539999999999997E-08, 579139398.853304, -1.6381249999999995E-10
DataValue, -22.400000000000002, -1, 1.0737E-09, 1.2528E-09, 9.372E-08, -798212005.10855675, -1.5055000000000021E-09
DataValue, -23.2, -1, 9.149E-10, 6.821E-10, -1.7650199999999997E-08, -1466060694.9127696, 1.6011250000000022E-09
DataValue, -24, -1, -1.1236E-09, -1.309E-09, 2.1996799999999997E-08, 763941940.41252863, -1.6068749999999989E-10
DataValue, -24.8, -1, 4.325E-10, 9.392E-10, 2.9E-09, -1064735945.4855195, 2.3949999999999985E-10
DataValue, -25.6, -1, -2.9488E-09, -1.6922E-09, -2.2346199999999998E-08, 590946696.607966, -1.0379999999999991E-09
DataValue, -26.400000000000002, -1, 7.759E-10, 2.6E-09, 3.082E-08, -384615384.61538458, -1.9050625000000025E-09
DataValue, -27.2, -1, 4.4589E-09, 1.3559E-09, 9.756E-08, -737517516.041006, 4.1906250000000064E-10
DataValue, -28, -1, 9.248E-10, 1.9295E-09, 9.626E-08, -518268981.60145116, 2.2625000000000071E-11
DataValue, -28.8, -1, 4.4767E-09, 1.3197E-09, 8.986E-08, -757747973.02417219, 7.5956249999999936E-10
DataValue, -29.6, -1, 8.998E-10, 7.142E-10, -1.7587799999999998E-08, -1400168020.1624196, 1.6039999999999984E-09
DataValue, -30.400000000000002, -1, -1.1264E-09, -1.2467E-09, 2.08382E-08, 802117590.43875825, -2.0575000000000025E-10
DataValue, -31.2, -1, 5.713E-10, 1.0434E-09, -3.248E-08, -958405213.72436273, -9.4612500000000122E-10
DataValue, -32, -1, -4.2863E-09, 2.671E-10, -9.558E-08, -3743916136.2785478, 1.6149375000000019E-09
DataValue, -32.8, -1, -3.6213E-09, -1.5405E-09, -1.7344199999999997E-08, 649139889.64621878, 9.0049999999999922E-10
DataValue, -33.6, -1, -1.1398E-09, -1.1737E-09, 2.2447399999999998E-08, 852006475.24921191, -1.6178749999999986E-09
DataValue, -34.4, -1, 3.954E-10, 1.0481E-09, 4.3E-09, -954107432.49689925, -2.4317499999999979E-09
DataValue, -35.2, -1, 2.336E-10, 2.7171E-09, 3.124E-08, -368039453.82945049, -5.8368749999999949E-10
DataValue, -36, -1, 2.8213999999999998E-09, 1.982E-09, 1.175E-07, -504540867.81029266, 8.1131249999999931E-10
DataValue, -36.800000000000004, -1, 4.5222E-09, 1.419E-09, 9.682E-08, -704721634.95419312, 7.1849999999999922E-10
DataValue, -37.6, -1, 9.037E-10, 8.324E-10, -1.9714199999999998E-08, -1201345506.967804, 1.8423750000000067E-09
DataValue, -38.4, -1, -6.027E-10, -1.5288E-09, 3.11E-08, 654107796.96493983, -8.1718749999999915E-10
DataValue, -39.2, -1, 2.5648E-09, 2.1399E-09, 1.311E-07, -467311556.61479509, -6.4799999999999942E-10
DataValue, -40, -1, 7.325E-10, -4.92E-10, 1.8492599999999997E-08, 2032520325.2032523, 4.1550000000000151E-10
DataValue, -40, -1, -2.6834E-09, 1.8075E-09, 9.3379999999999993E-08, -553250345.78146613, -4.4562500000000165E-10
DataValue, -39.2, -1, 6.599E-10, -8.485E-10, 1.7160399999999998E-08, 1178550383.0288744, -2.3246249999999981E-09
DataValue, -38.4, -1, 8.134E-10, -1.9119E-09, 1.5073999999999999E-07, 523039907.94497621, 1.908124999999998E-10
DataValue, -37.6, -1, 7.604E-10, -5.432E-10, -3.128E-08, 1840942562.592047, -2.275000000000008E-11
DataValue, -36.800000000000004, -1, -4.5044E-09, -1.9483E-09, 3.166E-08, 513267977.2109018, 2.1572499999999981E-09
DataValue, -36, -1, 4.2278E-09, 2.9084E-09, -3.254E-08, -343831660.01925457, -2.7499999999999879E-11
DataValue, -35.2, -1, -4.2988E-09, -1.9923E-09, 2.838E-08, 501932439.89359039, -1.404999999999998E-10
DataValue, -34.4, -1, 3.8314E-09, 2.6836E-09, 1.61112E-08, -372633775.52541363, -1.89375E-10
DataValue, -33.6, -1, 1.0707E-09, -2.2953E-09, 2.534E-08, 435672896.78909075, -9.1249999999999475E-12
DataValue, -32.8, -1, 3.5532E-09, 2.669E-09, 1.8581E-08, -374672161.85837388, -9.9187499999999832E-11
DataValue, -32, -1, 6.101E-10, -2.454E-09, -1.80424E-08, 407497962.51018745, -5.06875000000001E-11
DataValue, -31.2, -1, 2.8264E-09, 2.5879E-09, 2.27054E-08, -386413694.50133312, 1.1831250000000015E-09
DataValue, -30.400000000000002, -1, -2.6813E-09, -5.61E-10, 3.214E-08, 1782531194.2959, -9.5000000000000835E-12
DataValue, -29.6, -1, 2.8995E-09, 2.5727E-09, 2.0968999999999997E-08, -388696699.96501732, -1.2929374999999989E-09
DataValue, -28.8, -1, 3.733E-10, -2.6297E-09, -1.99772E-08, 380271513.86089665, -6.9624999999999837E-11
DataValue, -28, -1, 2.5375E-09, 2.4613E-09, -3.1819999999999996E-08, -406289359.28168041, 2.5543749999999982E-10
DataValue, -27.2, -1, -4.1828E-09, -2.221E-09, 3.176E-08, 450247636.19990993, 6.1375000000000034E-11
DataValue, -26.400000000000002, -1, 4.2924E-09, 2.5595E-09, -3.176E-08, -390701308.84938461, -6.1937499999999948E-11
DataValue, -25.6, -1, -4.0522E-09, -2.3201E-09, -1.64404E-08, 431015904.48687559, -3.6918749999999971E-10
DataValue, -24.8, -1, -1.0193E-09, 1.9688E-09, -2.638E-08, -507923608.28931326, -4.5562499999999978E-11
DataValue, -24, -1, -3.9617E-09, -2.393E-09, -1.73736E-08, 417885499.37317175, 1.5812499999999926E-11
DataValue, -23.2, -1, -3.194E-10, 1.9941E-09, 2.13962E-08, -501479364.12416631, 7.95750000000001E-10
DataValue, -22.400000000000002, -1, 3.823E-10, -1.1198E-09, -9.47E-08, 893016610.108948, -2.0506250000000025E-09
DataValue, -21.6, -1, -3.0012E-09, -1.2869E-09, 3.16E-08, 777061154.712876, 2.1192499999999984E-09
DataValue, -20.8, -1, 3.326E-09, 2.271E-09, 1.9155599999999998E-08, -440334654.33729631, 9.85624999999999E-11
DataValue, -20, -1, 6.058E-10, -1.1292E-09, -8.402E-08, 885582713.425434, -1.8037499999999985E-09
DataValue, -19.2, -1, -1.1614E-09, -6.15E-10, -2.2197799999999997E-08, 1626016260.1626015, 1.8176875000000025E-09
