
SetupTitle, Id-Vgs
PrimitiveTest, I/V Sweep
TestParameter, Context.MainFrame, B1500A
TestParameter, Channel.UnitType, SMU, SMU, SMU
TestParameter, Channel.Unit, SMU1:MP, SMU4:MP, SMU5:MP
TestParameter, Channel.IName, Is, Id, Ig
TestParameter, Channel.VName, Vs, Vds, Vgs
TestParameter, Channel.Mode, V, V, V
TestParameter, Channel.Func, CONST, VAR2, VAR1
TestParameter, Channel.Index, 
TestParameter, Channel.Time, 
TestParameter, Measurement.Port.Unit, SMU1:MP, SMU4:MP, SMU5:MP
TestParameter, Measurement.Port.SeriesResistor, NONE, NONE, NONE
TestParameter, Measurement.Port.Filter, ON, ON, ON
TestParameter, Measurement.Port.OutputVoltageComparison, 0, 0, 0
TestParameter, Measurement.Primary.Locus, Double
TestParameter, Measurement.Primary.Scale, LINEAR
TestParameter, Measurement.Primary.Start, 40
TestParameter, Measurement.Primary.Stop, -40
TestParameter, Measurement.Primary.Step, -0.8
TestParameter, Measurement.Primary.Compliance, 1E-06
TestParameter, Measurement.Primary.PowerCompliance, 0
TestParameter, Measurement.Aborting.Condition, CONTINUE AT ANY
TestParameter, Measurement.PostOutput.Value, START
TestParameter, Measurement.PostOutput.Retention, OFF
TestParameter, Measurement.Secondary.Start, -1
TestParameter, Measurement.Secondary.Count, 1
TestParameter, Measurement.Secondary.Step, -0.5
TestParameter, Measurement.Secondary.Compliance, 0.0005
TestParameter, Measurement.Secondary.PowerCompliance, 0
TestParameter, Measurement.Bias.Source, 0, -1, 40
TestParameter, Measurement.Bias.Compliance, 0.1, 0.0005, 1E-06
TestParameter, Measurement.Monitor.Unit, SMU1:MP, SMU4:MP, SMU5:MP
TestParameter, Measurement.Monitor.Adc, HR ADC, HR ADC, HR ADC
TestParameter, Measurement.Monitor.Measurement, Compliance Side, Compliance Side, Compliance Side
TestParameter, Measurement.Monitor.RangingMode, LIMITED, LIMITED, LIMITED
TestParameter, Measurement.Monitor.RangeBoundary, 1nA, 1nA, 1nA
TestParameter, Measurement.Monitor.RangeRating, BY FULL RANGE, BY FULL RANGE, BY FULL RANGE
TestParameter, Measurement.Monitor.RangeRatingCoeff, 50, 50, 50
TestParameter, Measurement.Timing.Hold, 0
TestParameter, Measurement.Timing.Delay, 0
TestParameter, Measurement.Adc.HighSpeed.Mode, AUTO
TestParameter, Measurement.Adc.HighSpeed.Coeff, 1
TestParameter, Measurement.Adc.HighResolution.AutoZero, OFF
TestParameter, Measurement.Adc.HighResolution.Mode, AUTO
TestParameter, Measurement.Adc.HighResolution.Coeff, 4
TestParameter, Measurement.WaitTime.Source.Coeff, 1
TestParameter, Measurement.WaitTime.Source.Offset, 0
TestParameter, Measurement.WaitTime.Monitor.Coeff, 1
TestParameter, Measurement.WaitTime.Monitor.Offset, 0
TestParameter, Function.User.Name, R, gm
TestParameter, Function.User.Unit, Ohms, S
TestParameter, Function.User.Definition, Vds/Id, delta(Id)/delta(Vgs)
TestParameter, Output.Graph.Enabled, true
TestParameter, Output.Graph.XAxis.Data, Vgs
TestParameter, Output.Graph.XAxis.Scale, Linear
TestParameter, Output.Graph.XAxis.Left, -50
TestParameter, Output.Graph.XAxis.Right, 50
TestParameter, Output.Graph.YAxis.Data, Id, Is, Ig
TestParameter, Output.Graph.YAxis.Scale, Log, Log, Log
TestParameter, Output.Graph.YAxis.Bottom, -1E-13, 1E-13, 1E-11
TestParameter, Output.Graph.YAxis.Top, -2E-05, 2E-05, 1E-07
TestParameter, Output.Graph.YAxis.Group, , , 
TestParameter, Output.List.Data, Vgs, Vds, Id, Is, Ig, R, gm
TestParameter, AutoAnalysis.Interpolation, false
TestParameter, AutoAnalysis.Line1.Enabled, false
TestParameter, AutoAnalysis.Line1.Type, 1
TestParameter, AutoAnalysis.Line1.Fix, True
TestParameter, AutoAnalysis.Line1.YAxis, 0
TestParameter, AutoAnalysis.Line1.Point1.Type, 0
TestParameter, AutoAnalysis.Line1.Point1.XY.X, 
TestParameter, AutoAnalysis.Line1.Point1.XY.Y, 
TestParameter, AutoAnalysis.Line1.Point1.Data.Var, 
TestParameter, AutoAnalysis.Line1.Point1.Data.Condition, 
TestParameter, AutoAnalysis.Line1.Point1.Data.Start, false
TestParameter, AutoAnalysis.Line1.Point1.Data.StartVar, 
TestParameter, AutoAnalysis.Line1.Point1.Data.StartCondition, 
TestParameter, AutoAnalysis.Line1.Point2.Type, 0
TestParameter, AutoAnalysis.Line1.Point2.XY.X, 
TestParameter, AutoAnalysis.Line1.Point2.XY.Y, 
TestParameter, AutoAnalysis.Line1.Point2.Data.Var, 
TestParameter, AutoAnalysis.Line1.Point2.Data.Condition, 
TestParameter, AutoAnalysis.Line1.Point2.Data.Start, false
TestParameter, AutoAnalysis.Line1.Point2.Data.StartVar, 
TestParameter, AutoAnalysis.Line1.Point2.Data.StartCondition, 
TestParameter, AutoAnalysis.Line1.GradientExpr, 0
TestParameter, AutoAnalysis.Line2.Enabled, false
TestParameter, AutoAnalysis.Line2.Type, 1
TestParameter, AutoAnalysis.Line2.Fix, True
TestParameter, AutoAnalysis.Line2.YAxis, 0
TestParameter, AutoAnalysis.Line2.Point1.Type, 0
TestParameter, AutoAnalysis.Line2.Point1.XY.X, 
TestParameter, AutoAnalysis.Line2.Point1.XY.Y, 
TestParameter, AutoAnalysis.Line2.Point1.Data.Var, 
TestParameter, AutoAnalysis.Line2.Point1.Data.Condition, 
TestParameter, AutoAnalysis.Line2.Point1.Data.Start, false
TestParameter, AutoAnalysis.Line2.Point1.Data.StartVar, 
TestParameter, AutoAnalysis.Line2.Point1.Data.StartCondition, 
TestParameter, AutoAnalysis.Line2.Point2.Type, 0
TestParameter, AutoAnalysis.Line2.Point2.XY.X, 
TestParameter, AutoAnalysis.Line2.Point2.XY.Y, 
TestParameter, AutoAnalysis.Line2.Point2.Data.Var, 
TestParameter, AutoAnalysis.Line2.Point2.Data.Condition, 
TestParameter, AutoAnalysis.Line2.Point2.Data.Start, false
TestParameter, AutoAnalysis.Line2.Point2.Data.StartVar, 
TestParameter, AutoAnalysis.Line2.Point2.Data.StartCondition, 
TestParameter, AutoAnalysis.Line2.GradientExpr, 0
TestParameter, AutoAnalysis.Marker.Enabled, false
TestParameter, AutoAnalysis.Marker.Data.Var, 
TestParameter, AutoAnalysis.Marker.Data.Condition, 
TestParameter, AutoAnalysis.Marker.Data.Start, false
TestParameter, AutoAnalysis.Marker.Data.StartVar, 
TestParameter, AutoAnalysis.Marker.Data.StartCondition, 
MetaData, TestRecord.EntryPoint, true
MetaData, TestRecord.RecordTime, 02/28/2018 01:43:35
MetaData, TestRecord.TestTarget, 180207S1_d3_r4_lch100
MetaData, TestRecord.IterationIndex, 29
MetaData, TestRecord.Preservation, true
MetaData, TestRecord.Flag, ?
MetaData, TestRecord.Remarks, 
MetaData, TestRecord.LinkKey, 69167781-5d6d-4e42-adc1-bab024b1fa22
Dimension1, 202, 202, 202, 202, 202, 202, 202
Dimension2, 1, 1, 1, 1, 1, 1, 1
DataName, Vgs, Vds, Is, Id, Ig, R, gm
DataValue, 40, -1, 3.003E-09, -1.9277E-09, 4.196E-08, 518752917.98516369, -3.0647500000000105E-09
DataValue, 39.2, -1, 1.93E-10, 5.241E-10, -3.7719999999999996E-08, -1908032818.1644726, -3.0624999999999026E-12
DataValue, 38.4, -1, 1.3618E-09, -1.9228E-09, -1.2192E-07, 520074890.78427291, -1.285562499999999E-09
DataValue, 37.6, -1, 4.1247E-09, 2.581E-09, -3.198E-08, -387446726.07516468, -1.8781250000000064E-10
DataValue, 36.800000000000004, -1, 1.1935E-09, -1.6223E-09, -1.0133999999999999E-07, 616408802.317697, -1.1368124999999991E-09
DataValue, 36, -1, 4.0171E-09, 4.3999E-09, -3.808E-08, -227277892.67937908, -1.2512499999999989E-10
DataValue, 35.2, -1, 1.2736E-09, -1.4221E-09, -3.748E-08, 703185429.99789035, 1.3189999999999989E-09
DataValue, 34.4, -1, 3.0229E-09, 2.2895E-09, 6.62E-09, -436776588.77484167, -2.5024374999999979E-09
DataValue, 33.6, -1, -2.6786E-09, 2.5818E-09, -3.8139999999999996E-08, -387326671.31458676, 2.5509999999999975E-09
DataValue, 32.8, -1, 9.57E-11, -1.7921E-09, 2.128E-08, 558004575.63752019, -1.0799999999999995E-10
DataValue, 32, -1, -2.5882E-09, 2.7546E-09, -3.888E-08, -363029114.93501776, 5.2350000000000073E-10
DataValue, 31.2, -1, -2.202E-10, -2.6297E-09, 3.172E-08, 380271513.86089665, -6.49375000000001E-11
DataValue, 30.400000000000002, -1, -1.5079E-09, 2.8585E-09, -3.902E-08, -349833828.93125767, -6.3018750000000093E-10
DataValue, 29.6, -1, 1.267E-10, -1.6214E-09, 2.88E-08, 616750955.96398175, -1.1406249999999999E-10
DataValue, 28.8, -1, -2.5669E-09, 3.041E-09, -3.926E-08, -328839197.63235778, 6.8631249999999933E-10
DataValue, 28, -1, -9.93E-11, -2.7195E-09, -3.912E-08, 367714653.42893916, 3.5766874999999967E-09
DataValue, 27.2, -1, -7.7E-11, -2.6817E-09, -3.934E-08, 372897788.71611291, -3.5062499999999944E-11
DataValue, 26.400000000000002, -1, -1.485E-10, -2.6634E-09, -3.92E-08, 375459938.42457008, -1.7187499999999866E-11
DataValue, 25.6, -1, -1.98E-10, -2.6542E-09, -3.962E-08, 376761359.35498452, -7.82499999999999E-11
DataValue, 24.8, -1, -2.815E-10, -2.5382E-09, -1.251E-07, 393979985.81672049, -3.7248124999999972E-09
DataValue, 24, -1, 3.7441E-09, 3.3055E-09, 1.9228E-08, -302526092.87551051, -3.5916249999999967E-09
DataValue, 23.2, -1, -9.233E-10, 3.2084E-09, 1.4407599999999999E-08, -311681835.18264556, 2.969250000000004E-09
DataValue, 22.400000000000002, -1, 2.908E-10, -1.4453E-09, -3.9219999999999996E-08, 691897875.87352109, 3.5713125000000047E-09
DataValue, 21.6, -1, -2.101E-10, -2.5057E-09, -3.976E-08, 399090074.62984395, 6.3668749999999962E-10
DataValue, 20.8, -1, -2.382E-10, -2.464E-09, -1.0844E-07, 405844155.84415579, -3.7188749999999966E-09
DataValue, 20, -1, 3.8602E-09, 3.4445E-09, 1.79024E-08, -290317898.09841776, 4.5081249999999957E-10
DataValue, 19.2, -1, -9.263E-10, -3.1853E-09, -1.8690799999999998E-08, 313942171.85194486, 4.0970625000000053E-09
DataValue, 18.400000000000002, -1, 9.569E-10, -3.1107999999999996E-09, -1.7374E-07, 321460717.50032151, -7.5437500000000237E-11
DataValue, 17.6, -1, 9.719E-10, -3.0646E-09, -2.0923599999999998E-08, 326306858.97017556, -7.0624999999999885E-11
DataValue, 16.8, -1, 9.513E-10, -2.9977999999999997E-09, -1.36812E-08, 333577957.16859031, -3.196562499999997E-09
DataValue, 16, -1, -3.951E-10, 2.0499E-09, 3.806E-08, -487828674.56949115, 1.9906250000000011E-10
DataValue, 15.200000000000001, -1, 1.975E-10, -3.3163E-09, 3.748E-08, 301540873.86545247, -3.8225E-10
DataValue, 14.4, -1, 3.786E-10, 2.6615E-09, -1.0072E-07, -375727972.94758594, -4.5483749999999959E-09
DataValue, 13.6, -1, 4.9868E-09, 3.9611E-09, 2.5023999999999996E-08, -252455126.10133547, 3.7813750000000013E-09
DataValue, 12.8, -1, -2.7646E-09, -3.3887E-09, 3.846E-08, 295098415.32150972, 4.4559375000000011E-09
DataValue, 12, -1, 1.898E-10, -3.1684E-09, 3.272E-08, 315616715.06122965, -3.7846875000000009E-09
DataValue, 11.200000000000001, -1, 4.033E-10, 2.6668E-09, -1.2576E-07, -374981250.93745315, -4.2670000000000011E-09
DataValue, 10.4, -1, 3.6351E-09, 3.6588E-09, -1.543E-07, -273313654.75019133, 7.0331249999999937E-10
DataValue, 9.6, -1, 4.4687E-09, 1.5415E-09, 8.318E-08, -648718780.40869284, 4.2115625E-09
DataValue, 8.8, -1, -4.4436E-09, -3.0797E-09, 3.214E-08, 324706951.97584182, -7.6018750000000028E-10
DataValue, 8, -1, 3.644E-10, 2.7578E-09, -1.2468E-07, -362607875.84306329, -4.2623749999999983E-09
DataValue, 7.2, -1, 3.5478E-09, 3.7401E-09, -1.5986E-07, -267372530.14625275, -7.2124999999999986E-10
DataValue, 6.4, -1, 4.4209E-09, 3.9118E-09, -3.38E-08, -255636791.24699628, 3.8025000000000013E-09
DataValue, 5.6000000000000005, -1, -1.49E-10, -2.3439E-09, -3.94E-08, 426639361.74751478, 3.8714374999999984E-09
DataValue, 4.8, -1, -1.767E-10, -2.2825E-09, -3.832E-08, 438116100.76670319, -1.83750000000002E-11
DataValue, 4, -1, -1.398E-10, -2.3145E-09, -3.748E-08, 432058759.99135888, -9.0918750000000018E-10
DataValue, 3.2, -1, 1.5E-12, -8.278E-10, -2.2608799999999997E-08, 1208021261.1741967, -2.7171875E-09
DataValue, 2.4, -1, 2.7371E-09, 2.033E-09, 1.2688E-07, -491883915.39596659, 1.3964375E-09
DataValue, 1.6, -1, -9.002E-10, -3.0621E-09, -2.2911999999999997E-08, 326573266.71238691, -2.2618750000000013E-10
DataValue, 0.8, -1, 1.0395E-09, 2.3949E-09, 1.5634E-07, -417553968.85047394, -1.437499999999924E-12
DataValue, 0, -1, -9.668E-10, -3.0598E-09, -2.2666E-08, 326818746.3232891, 3.3940625E-09
DataValue, -0.8, -1, -9.199E-10, -3.0356E-09, -2.3936799999999997E-08, 329424166.5568586, -3.1634999999999997E-09
DataValue, -1.6, -1, 2.7608E-09, 2.0018E-09, 9.734E-08, -499550404.63582778, -1.1787499999999997E-10
DataValue, -2.4, -1, -8.512E-10, -2.847E-09, -1.7663599999999997E-08, 351246926.5893923, 2.88925E-09
DataValue, -3.2, -1, 8.714E-10, -2.621E-09, -1.3454999999999999E-08, 381533765.73826784, -3.870125E-09
DataValue, -4, -1, 4.36E-11, 3.3452E-09, 3.246E-08, -298935788.5926103, 2.3525000000000009E-10
DataValue, -4.8, -1, 1.63E-10, -2.9974E-09, 3.63E-08, 333622472.80976844, 2.5774999999999986E-10
DataValue, -5.6000000000000005, -1, 3.798E-10, 2.9328E-09, -1.4109999999999999E-07, -340971085.65193671, -4.2851249999999985E-09
DataValue, -6.4, -1, 3.2822E-09, 3.8588E-09, -1.9497199999999997E-08, -259147921.63366851, 4.9531250000000009E-10
DataValue, -7.2, -1, 9.239E-10, 2.1403E-09, 6.674E-08, -467224220.9036116, 4.2284375000000012E-09
DataValue, -8, -1, -8.87E-10, -2.9067E-09, 3.258E-08, 344032751.91798258, -4.8756249999999968E-10
DataValue, -8.8, -1, 3.93E-10, 2.9204E-09, -1.3502E-07, -342418846.73332423, -4.3305E-09
DataValue, -9.6, -1, 3.9756E-09, 4.0221E-09, 1.95446E-08, -248626339.47440392, 3.6641250000000007E-09
DataValue, -10.4, -1, -9.263E-10, -2.9422E-09, -2.3619799999999998E-08, 339881721.16103595, 1.103562499999999E-09
DataValue, -11.200000000000001, -1, 2.6714E-09, 2.2564E-09, 1.034E-07, -443183832.65378475, -3.8624999999999964E-11
DataValue, -12, -1, -8.902E-10, -2.8804E-09, -2.24604E-08, 347174003.61060965, 2.7500000000000689E-12
DataValue, -12.8, -1, 9.928E-10, 2.252E-09, 8.568E-08, -444049733.57015985, -3.7312500000000078E-11
DataValue, -13.6, -1, -8.318E-10, -2.8207E-09, -2.0272599999999997E-08, 354521927.18119615, 1.4712500000000018E-10
DataValue, -14.4, -1, 9.154E-10, 2.0166E-09, 7.646E-08, -495884161.45988303, -2.5589374999999978E-09
DataValue, -15.200000000000001, -1, 2.2728E-09, 1.2736E-09, 8.408E-08, -785175879.39698493, 3.053812500000001E-09
DataValue, -16, -1, -2.7613E-09, -2.8695E-09, 3.632E-08, 348492768.7750479, 2.6287500000000005E-09
DataValue, -16.8, -1, 9.041E-10, -2.9324E-09, 3.45E-08, 341017596.50797981, -3.8006249999999967E-09
DataValue, -17.6, -1, 2.888E-10, 3.2115E-09, 3.5239999999999997E-08, -311380974.62245059, -2.9679999999999972E-09
DataValue, -18.400000000000002, -1, 1.732E-10, 1.8164E-09, 2.2202199999999997E-08, -550539528.73816335, 3.814562500000005E-09
DataValue, -19.2, -1, -2.6927E-09, -2.8918E-09, 3.414E-08, 345805380.7317242, 2.8804375000000042E-09
DataValue, -20, -1, 2.672E-10, -2.7923E-09, 3.244E-08, 358127708.34079432, -3.7491874999999963E-09
DataValue, -20.8, -1, 3.758E-10, 3.1069E-09, -1.3016E-07, -321864237.66455311, -4.288062499999996E-09
DataValue, -21.6, -1, 3.3907E-09, 4.0686E-09, -1.4986E-07, -245784790.837143, -8.0824999999999935E-10
DataValue, -22.400000000000002, -1, 4.6319E-09, 4.4001E-09, -3.75E-08, -227267562.10086134, 2.6703125000000033E-09
DataValue, -23.2, -1, 2.1519E-09, -2.039E-10, -2.36856E-08, 4904364884.7474251, 1.1646875000000015E-09
DataValue, -24, -1, 9.683E-10, 2.5366E-09, 9.754E-08, -394228494.83560669, 1.4663749999999987E-09
DataValue, -24.8, -1, -9.076E-10, -2.5501E-09, 1.6258E-07, 392141484.64766085, 1.6631874999999987E-09
DataValue, -25.6, -1, -4.4121E-09, -1.245E-10, -1.0091999999999999E-07, 8032128514.0562239, -4.3409374999999964E-09
DataValue, -26.400000000000002, -1, 4.7289E-09, 4.3954E-09, 2.5092599999999997E-08, -227510579.24193475, -2.7859375000000033E-09
DataValue, -27.2, -1, 7.138E-10, 4.333E-09, 2.2802599999999997E-08, -230786983.61412418, 2.7717500000000034E-09
DataValue, -28, -1, -4.6504E-09, -3.94E-11, -7.546E-08, 25380710659.898476, 2.7156874999999973E-09
DataValue, -28.8, -1, -3.7534E-09, -1.21E-11, -2.2643799999999997E-08, 82644628099.173553, -1.7594999999999983E-09
DataValue, -29.6, -1, 1.0762E-09, 2.7758E-09, 1.4862E-07, -360256502.6298725, 1.6969999999999984E-09
DataValue, -30.400000000000002, -1, -1.0147E-09, -2.7273E-09, -2.5318199999999996E-08, 366663000.03666633, -1.0510625000000017E-09
DataValue, -31.2, -1, 4.764E-09, 4.4575E-09, 2.55928E-08, -224340998.31744251, -4.489437500000006E-09
DataValue, -32, -1, 7.085E-10, 4.4558E-09, 2.2281999999999997E-08, -224426590.06239057, 4.4925625000000062E-09
DataValue, -32.8, -1, -1.0006E-09, -2.7306E-09, -2.5154999999999996E-08, 366219878.41500038, -1.7562499999999943E-11
DataValue, -33.6, -1, 4.7088E-09, 4.4839E-09, 2.43804E-08, -223020138.71852627, -1.7156249999999984E-09
DataValue, -34.4, -1, -4.6805E-09, 1.44E-11, -8.364E-08, -69444444444.444443, 2.7776874999999977E-09
DataValue, -35.2, -1, -3.7405E-09, 3.96E-11, -2.36058E-08, -25252525252.525253, -1.7180624999999987E-09
DataValue, -36, -1, 1.0254E-09, 2.7633E-09, 1.3006E-07, -361886150.61701584, 1.6481874999999987E-09
DataValue, -36.800000000000004, -1, -9.026E-10, -2.5975E-09, -2.3392999999999996E-08, 384985563.04138595, 5.7875000000000123E-11
DataValue, -37.6, -1, 9.761E-10, 2.6707E-09, 1.267E-07, -374433669.07552326, -6.6875000000002653E-12
DataValue, -38.4, -1, -9.325E-10, -2.5868E-09, -2.5959399999999996E-08, 386578011.44270915, -1.1492499999999989E-09
DataValue, -39.2, -1, 4.667E-09, 4.5095E-09, 2.4457E-08, -221754074.73112321, -4.4022499999999965E-09
DataValue, -40, -1, 7.389E-10, 4.4568E-09, 2.10706E-08, -224376234.06928739, 8.973750000000031E-09
DataValue, -40, -1, -7.77E-10, -2.6695E-09, 3.348E-08, 374601985.3905226, -1.5287500000000049E-09
DataValue, -39.2, -1, 3.178E-10, 3.2338E-09, 3.748E-08, -309233718.84470284, 3.5887499999999963E-09
DataValue, -38.4, -1, 2.824E-10, 3.0725E-09, 1.1306E-07, -325467860.0488202, -3.947499999999997E-09
DataValue, -37.6, -1, -3.3351E-09, -3.0822E-09, -2.41056E-08, 324443579.2615664, -6.2075000000000212E-10
DataValue, -36.800000000000004, -1, 2.6101E-09, 2.0793E-09, 1.0852E-07, -480931082.57586688, -4.5062500000000083E-11
DataValue, -36, -1, -9.225E-10, -3.1543E-09, -2.3357199999999996E-08, 317027549.69406837, 1.5318749999999981E-10
DataValue, -35.2, -1, 1.0414E-09, 2.3244E-09, 1.5426E-07, -430218551.02392018, -6.35624999999998E-11
DataValue, -34.4, -1, -9.383E-10, -3.256E-09, -2.28738E-08, 307125307.12530714, -3.8193749999999959E-10
DataValue, -33.6, -1, 2.803E-09, 1.7133E-09, 7.508E-08, -583668942.97554421, 3.9687499999999992E-11
DataValue, -32.8, -1, -9.156E-10, -3.1925E-09, -2.0373799999999997E-08, 313234142.52153486, -9.6674999999999917E-10
DataValue, -32, -1, 8.781E-10, 1.665E-10, -2.2295199999999996E-08, -6006006006.0060062, 3.1591875000000043E-09
DataValue, -31.2, -1, 2.7324E-09, 1.8622E-09, 1.3554E-07, -536999248.20105255, -2.2103750000000033E-09
DataValue, -30.400000000000002, -1, -9.283E-10, -3.3701E-09, -2.1464199999999997E-08, 296727100.08605087, -8.3750000000000086E-11
DataValue, -29.6, -1, 9.073E-10, 1.7282E-09, 7.692E-08, -578636731.85973847, 1.6874999999999992E-12
DataValue, -28.8, -1, -9.004E-10, -3.3674E-09, -2.0470799999999998E-08, 296965017.520936, -3.2125000000000005E-11
DataValue, -28, -1, 9.03E-10, 1.6768E-09, 7.686E-08, -596374045.80152667, 9.873749999999994E-10
DataValue, -27.2, -1, -9.071E-10, -1.7876E-09, -2.628E-08, 559409263.8174088, -1.9615000000000024E-09
DataValue, -26.400000000000002, -1, 1.9276E-09, -1.4615999999999998E-09, -2.006E-08, 684181718.66447735, 2.8633750000000039E-09
DataValue, -25.6, -1, 2.2714E-09, 2.7938E-09, 8.354E-09, -357935428.44870788, -1.2163124999999991E-09
DataValue, -24.8, -1, -4.4584E-09, -3.4077E-09, 3.926E-08, 293453062.18270385, -2.7418749999999984E-10
DataValue, -24, -1, 3.592E-10, 2.3551E-09, -1.1366E-07, -424610419.93970537, 4.3153124999999963E-09
DataValue, -23.2, -1, 3.2886E-09, 3.4968E-09, 2.5921599999999997E-08, -285975749.25646305, 6.7881250000000106E-10
DataValue, -22.400000000000002, -1, 6.481E-10, 3.4412E-09, 2.3006599999999997E-08, -290596303.615018, -4.4935000000000056E-09
DataValue, -21.6, -1, -1.0857E-09, -3.6928E-09, -2.47274E-08, 270797227.03639513, 6.1124999999999828E-11
DataValue, -20.8, -1, 4.6773999999999996E-09, 3.539E-09, 2.65216E-08, -282565696.52444196, 4.1277499999999962E-09
DataValue, -20, -1, 6.502E-10, 2.9116E-09, -2.5114999999999997E-08, -343453771.1224069, -3.1558124999999972E-09
DataValue, -19.2, -1, -6.842E-10, -1.5103E-09, -3.796E-08, 662120108.58769774, 2.4618750000000009E-10
