
SetupTitle, Id-Vgs
PrimitiveTest, I/V Sweep
TestParameter, Context.MainFrame, B1500A
TestParameter, Channel.UnitType, SMU, SMU, SMU
TestParameter, Channel.Unit, SMU1:MP, SMU4:MP, SMU5:MP
TestParameter, Channel.IName, Is, Id, Ig
TestParameter, Channel.VName, Vs, Vds, Vgs
TestParameter, Channel.Mode, V, V, V
TestParameter, Channel.Func, CONST, VAR2, VAR1
TestParameter, Channel.Index, 
TestParameter, Channel.Time, 
TestParameter, Measurement.Port.Unit, SMU1:MP, SMU4:MP, SMU5:MP
TestParameter, Measurement.Port.SeriesResistor, NONE, NONE, NONE
TestParameter, Measurement.Port.Filter, ON, ON, ON
TestParameter, Measurement.Port.OutputVoltageComparison, 0, 0, 0
TestParameter, Measurement.Primary.Locus, Double
TestParameter, Measurement.Primary.Scale, LINEAR
TestParameter, Measurement.Primary.Start, 40
TestParameter, Measurement.Primary.Stop, -40
TestParameter, Measurement.Primary.Step, -0.8
TestParameter, Measurement.Primary.Compliance, 1E-06
TestParameter, Measurement.Primary.PowerCompliance, 0
TestParameter, Measurement.Aborting.Condition, CONTINUE AT ANY
TestParameter, Measurement.PostOutput.Value, START
TestParameter, Measurement.PostOutput.Retention, OFF
TestParameter, Measurement.Secondary.Start, -1
TestParameter, Measurement.Secondary.Count, 1
TestParameter, Measurement.Secondary.Step, -0.5
TestParameter, Measurement.Secondary.Compliance, 0.0005
TestParameter, Measurement.Secondary.PowerCompliance, 0
TestParameter, Measurement.Bias.Source, 0, -1, 40
TestParameter, Measurement.Bias.Compliance, 0.1, 0.0005, 1E-06
TestParameter, Measurement.Monitor.Unit, SMU1:MP, SMU4:MP, SMU5:MP
TestParameter, Measurement.Monitor.Adc, HR ADC, HR ADC, HR ADC
TestParameter, Measurement.Monitor.Measurement, Compliance Side, Compliance Side, Compliance Side
TestParameter, Measurement.Monitor.RangingMode, LIMITED, LIMITED, LIMITED
TestParameter, Measurement.Monitor.RangeBoundary, 1nA, 1nA, 1nA
TestParameter, Measurement.Monitor.RangeRating, BY FULL RANGE, BY FULL RANGE, BY FULL RANGE
TestParameter, Measurement.Monitor.RangeRatingCoeff, 50, 50, 50
TestParameter, Measurement.Timing.Hold, 0
TestParameter, Measurement.Timing.Delay, 0
TestParameter, Measurement.Adc.HighSpeed.Mode, AUTO
TestParameter, Measurement.Adc.HighSpeed.Coeff, 1
TestParameter, Measurement.Adc.HighResolution.AutoZero, OFF
TestParameter, Measurement.Adc.HighResolution.Mode, AUTO
TestParameter, Measurement.Adc.HighResolution.Coeff, 4
TestParameter, Measurement.WaitTime.Source.Coeff, 1
TestParameter, Measurement.WaitTime.Source.Offset, 0
TestParameter, Measurement.WaitTime.Monitor.Coeff, 1
TestParameter, Measurement.WaitTime.Monitor.Offset, 0
TestParameter, Function.User.Name, R, gm
TestParameter, Function.User.Unit, Ohms, S
TestParameter, Function.User.Definition, Vds/Id, delta(Id)/delta(Vgs)
TestParameter, Output.Graph.Enabled, true
TestParameter, Output.Graph.XAxis.Data, Vgs
TestParameter, Output.Graph.XAxis.Scale, Linear
TestParameter, Output.Graph.XAxis.Left, -50
TestParameter, Output.Graph.XAxis.Right, 50
TestParameter, Output.Graph.YAxis.Data, Id, Is, Ig
TestParameter, Output.Graph.YAxis.Scale, Log, Log, Log
TestParameter, Output.Graph.YAxis.Bottom, -1E-13, 1E-13, 1E-11
TestParameter, Output.Graph.YAxis.Top, -2E-05, 2E-05, 1E-07
TestParameter, Output.Graph.YAxis.Group, , , 
TestParameter, Output.List.Data, Vgs, Vds, Id, Is, Ig, R, gm
TestParameter, AutoAnalysis.Interpolation, false
TestParameter, AutoAnalysis.Line1.Enabled, false
TestParameter, AutoAnalysis.Line1.Type, 1
TestParameter, AutoAnalysis.Line1.Fix, True
TestParameter, AutoAnalysis.Line1.YAxis, 0
TestParameter, AutoAnalysis.Line1.Point1.Type, 0
TestParameter, AutoAnalysis.Line1.Point1.XY.X, 
TestParameter, AutoAnalysis.Line1.Point1.XY.Y, 
TestParameter, AutoAnalysis.Line1.Point1.Data.Var, 
TestParameter, AutoAnalysis.Line1.Point1.Data.Condition, 
TestParameter, AutoAnalysis.Line1.Point1.Data.Start, false
TestParameter, AutoAnalysis.Line1.Point1.Data.StartVar, 
TestParameter, AutoAnalysis.Line1.Point1.Data.StartCondition, 
TestParameter, AutoAnalysis.Line1.Point2.Type, 0
TestParameter, AutoAnalysis.Line1.Point2.XY.X, 
TestParameter, AutoAnalysis.Line1.Point2.XY.Y, 
TestParameter, AutoAnalysis.Line1.Point2.Data.Var, 
TestParameter, AutoAnalysis.Line1.Point2.Data.Condition, 
TestParameter, AutoAnalysis.Line1.Point2.Data.Start, false
TestParameter, AutoAnalysis.Line1.Point2.Data.StartVar, 
TestParameter, AutoAnalysis.Line1.Point2.Data.StartCondition, 
TestParameter, AutoAnalysis.Line1.GradientExpr, 0
TestParameter, AutoAnalysis.Line2.Enabled, false
TestParameter, AutoAnalysis.Line2.Type, 1
TestParameter, AutoAnalysis.Line2.Fix, True
TestParameter, AutoAnalysis.Line2.YAxis, 0
TestParameter, AutoAnalysis.Line2.Point1.Type, 0
TestParameter, AutoAnalysis.Line2.Point1.XY.X, 
TestParameter, AutoAnalysis.Line2.Point1.XY.Y, 
TestParameter, AutoAnalysis.Line2.Point1.Data.Var, 
TestParameter, AutoAnalysis.Line2.Point1.Data.Condition, 
TestParameter, AutoAnalysis.Line2.Point1.Data.Start, false
TestParameter, AutoAnalysis.Line2.Point1.Data.StartVar, 
TestParameter, AutoAnalysis.Line2.Point1.Data.StartCondition, 
TestParameter, AutoAnalysis.Line2.Point2.Type, 0
TestParameter, AutoAnalysis.Line2.Point2.XY.X, 
TestParameter, AutoAnalysis.Line2.Point2.XY.Y, 
TestParameter, AutoAnalysis.Line2.Point2.Data.Var, 
TestParameter, AutoAnalysis.Line2.Point2.Data.Condition, 
TestParameter, AutoAnalysis.Line2.Point2.Data.Start, false
TestParameter, AutoAnalysis.Line2.Point2.Data.StartVar, 
TestParameter, AutoAnalysis.Line2.Point2.Data.StartCondition, 
TestParameter, AutoAnalysis.Line2.GradientExpr, 0
TestParameter, AutoAnalysis.Marker.Enabled, false
TestParameter, AutoAnalysis.Marker.Data.Var, 
TestParameter, AutoAnalysis.Marker.Data.Condition, 
TestParameter, AutoAnalysis.Marker.Data.Start, false
TestParameter, AutoAnalysis.Marker.Data.StartVar, 
TestParameter, AutoAnalysis.Marker.Data.StartCondition, 
MetaData, TestRecord.EntryPoint, true
MetaData, TestRecord.RecordTime, 02/28/2018 02:34:30
MetaData, TestRecord.TestTarget, 180207S5_d2_r1_lch100
MetaData, TestRecord.IterationIndex, 78
MetaData, TestRecord.Preservation, true
MetaData, TestRecord.Flag, 
MetaData, TestRecord.Remarks, 
MetaData, TestRecord.LinkKey, 787efb0d-c70a-460b-829d-b3370ad7744f
Dimension1, 202, 202, 202, 202, 202, 202, 202
Dimension2, 1, 1, 1, 1, 1, 1, 1
DataName, Vgs, Vds, Is, Id, Ig, R, gm
DataValue, 40, -1, 3.5040599999999994E-08, -4.21872E-08, -3.392E-08, 23703872.264573142, -2.1325250000000074E-08
DataValue, 39.2, -1, 2.6366799999999996E-08, -2.5126999999999997E-08, 4.124E-08, 39797827.038643695, -1.0257124999999991E-08
DataValue, 38.4, -1, 2.2017799999999998E-08, -2.5775799999999998E-08, -3.396E-08, 38796080.044072352, -7.1848749999999927E-09
DataValue, 37.6, -1, 1.5753599999999998E-08, -1.3631199999999999E-08, 3.31E-08, 73361112.741358072, -5.99137500000002E-09
DataValue, 36.800000000000004, -1, 1.3625199999999999E-08, -1.61896E-08, -8.306E-08, 61768048.623807877, -1.0776249999999992E-09
DataValue, 36, -1, 1.0857199999999998E-08, -1.1906999999999999E-08, -3.266E-08, 83984210.968337968, -3.5221249999999973E-09
DataValue, 35.2, -1, 9.528E-09, -1.0554199999999999E-08, -1.6832E-07, 94749009.872846842, -5.5835624999999951E-09
DataValue, 34.4, -1, 8.7892E-09, -2.9733E-09, 2.01382E-08, 336326640.43318868, -2.3774999999999976E-09
DataValue, 33.6, -1, 4.1639999999999993E-09, -6.7501999999999993E-09, -1.6368E-07, 148143758.70344585, 2.452812499999997E-09
DataValue, 32.8, -1, 5.7801E-09, -6.8977999999999991E-09, -3.9359999999999996E-08, 144973759.74948537, -2.4021874999999971E-09
DataValue, 32, -1, 2.5925E-09, -2.9067E-09, 3.424E-08, 344032751.91798258, 2.5105000000000033E-09
DataValue, 31.2, -1, 9.0895999999999989E-09, -1.0914599999999999E-08, -9.744E-08, 91620398.3654921, 5.6085625000000077E-09
DataValue, 30.400000000000002, -1, 9.4123999999999986E-09, -1.18804E-08, -3.466E-08, 84172250.092589483, 1.5970000000000018E-09
DataValue, 29.6, -1, 1.4225399999999999E-08, -1.3469799999999998E-08, 4.7179999999999996E-08, 74240152.0438314, 5.9379999999999942E-09
DataValue, 28.8, -1, 2.2798799999999997E-08, -2.13812E-08, -1.1204E-07, 46770059.678596154, 7.5167499999999935E-09
DataValue, 28, -1, 2.5396599999999997E-08, -2.5496599999999998E-08, 1.5311999999999998E-07, 39220915.729940467, 8.87912499999999E-09
DataValue, 27.2, -1, 3.82952E-08, -3.5587799999999997E-08, -1.7671999999999998E-07, 28099517.250293642, 1.1505000000000013E-08
DataValue, 26.400000000000002, -1, 4.3384399999999995E-08, -4.3904599999999993E-08, 1.6924E-07, 22776656.660122178, 1.3481500000000016E-08
DataValue, 25.6, -1, 6.0501399999999989E-08, -5.7158199999999992E-08, 9.979999999999999E-09, 17495302.511275724, 1.6160874999999988E-08
DataValue, 24.8, -1, 7.4148399999999992E-08, -6.9762E-08, 1.0572E-07, 14334451.420544136, 1.7478249999999986E-08
DataValue, 24, -1, 8.96326E-08, -8.51234E-08, -1.0802E-07, 11747651.057171119, 2.189874999999998E-08
DataValue, 23.2, -1, 1.1327999999999999E-07, -1.048E-07, 1.8718199999999997E-08, 9541984.732824428, 2.8347875000000033E-08
DataValue, 22.400000000000002, -1, 1.3242E-07, -1.3048E-07, 1.0845999999999999E-07, 7664009.8099325579, 3.1700000000000046E-08
DataValue, 21.6, -1, 1.5514E-07, -1.5552E-07, -7.9864E-09, 6430041.1522633741, 3.0337499999999976E-08
DataValue, 20.8, -1, 1.7934E-07, -1.7902E-07, -1.7738E-07, 5585968.0482627638, 3.0387499999999967E-08
DataValue, 20, -1, 2.0874E-07, -2.0414E-07, 1.727E-07, 4898599.0006858036, 4.2062499999999964E-08
DataValue, 19.2, -1, 2.443E-07, -2.4632E-07, -8.3048E-09, 4059759.6622279962, 4.5125000000000062E-08
DataValue, 18.400000000000002, -1, 2.7692E-07, -2.7634E-07, -1.6936E-07, 3618730.5493232976, 3.9287500000000066E-08
DataValue, 17.6, -1, 3.1403999999999997E-07, -3.0918E-07, 1.7473799999999997E-08, 3234361.8604049417, 4.9187499999999943E-08
DataValue, 16.8, -1, 3.5724E-07, -3.5504E-07, 1.0872E-07, 2816584.0468679587, 5.6099999999999933E-08
DataValue, 16, -1, 3.9948E-07, -3.9894E-07, -9.451199999999999E-09, 2506642.602897679, 5.4600000000000019E-08
DataValue, 15.200000000000001, -1, 4.4288E-07, -4.424E-07, -1.7076E-07, 2260397.8300180831, 5.5125000000000019E-08
DataValue, 14.4, -1, 4.9208E-07, -4.8714E-07, 1.86778E-08, 2052797.96362442, 6.411249999999992E-08
DataValue, 13.6, -1, 5.4724E-07, -5.4498E-07, 1.4994E-07, 1834929.7221916402, 7.0850000000000016E-08
DataValue, 12.8, -1, 6.0138E-07, -6.005E-07, -1.8201999999999999E-07, 1665278.9342214821, 6.9287500000000031E-08
DataValue, 12, -1, 6.6348E-07, -6.5584E-07, 7.4079999999999992E-09, 1524762.1371066114, 7.4650000000000023E-08
DataValue, 11.200000000000001, -1, 7.219E-07, -7.1994E-07, 1.6954E-07, 1389004.6392754952, 8.0012500000000016E-08
DataValue, 10.4, -1, 7.8521999999999993E-07, -7.8386E-07, -2.0946E-07, 1275738.0144413544, 8.1937499999999935E-08
DataValue, 9.6, -1, 8.5912E-07, -8.5104E-07, 4.7599999999999996E-08, 1175032.9009212258, 8.5050000000000037E-08
DataValue, 8.8, -1, 9.234E-07, -9.1994E-07, -1.583E-07, 1087027.414831402, 9.2049999999999981E-08
DataValue, 8, -1, 1.0063799999999999E-06, -9.9832E-07, 2.1906E-07, 1001682.8271496114, 1.0026249999999996E-07
DataValue, 7.2, -1, 1.08072E-06, -1.08036E-06, -4.2639999999999997E-08, 925617.38679699355, 8.955000000000019E-08
DataValue, 6.4, -1, 1.1473000000000002E-06, -1.1416000000000002E-06, 2.1686E-07, 875963.55991590733, 9.5900000000000111E-08
DataValue, 5.6000000000000005, -1, 1.2349E-06, -1.2338000000000002E-06, -2.8141599999999996E-08, 810504.1335710811, 1.0418749999999985E-07
DataValue, 4.8, -1, 1.3122000000000001E-06, -1.3083E-06, -3.2E-10, 764350.68409386219, 1.0006249999999993E-07
DataValue, 4, -1, 1.3975000000000002E-06, -1.3939000000000001E-06, 9.964E-08, 717411.57902288542, 1.1787500000000015E-07
DataValue, 3.2, -1, 1.4945E-06, -1.4969000000000002E-06, -3.274E-08, 668047.29774868046, 1.2006250000000002E-07
DataValue, 2.4, -1, 1.5912000000000001E-06, -1.5860000000000002E-06, -8.848E-08, 630517.02395964682, 1.1781249999999998E-07
DataValue, 1.6, -1, 1.6967000000000002E-06, -1.6854000000000002E-06, 4.81E-08, 593330.96000949317, 1.1749999999999997E-07
DataValue, 0.8, -1, 1.7798E-06, -1.774E-06, 2.568E-08, 563697.85794813978, 1.1468750000000001E-07
DataValue, 0, -1, 1.8739000000000002E-06, -1.8689000000000002E-06, 9.86E-08, 535074.10776392522, 1.338125E-07
DataValue, -0.8, -1, 1.9871E-06, -1.9881E-06, -2.38604E-08, 502992.807202857, 1.3725000000000012E-07
DataValue, -1.6, -1, 2.0915000000000002E-06, -2.0885000000000004E-06, -1.488E-08, 478812.54488867597, 1.313125000000002E-07
DataValue, -2.4, -1, 2.2034000000000004E-06, -2.1982000000000004E-06, 1.6092E-07, 454917.65990355739, 1.495625E-07
DataValue, -3.2, -1, 2.3276000000000004E-06, -2.3278000000000004E-06, -2.2973799999999997E-08, 429590.170976888, 1.4793749999999987E-07
DataValue, -4, -1, 2.4375000000000004E-06, -2.4349E-06, -1.686E-08, 410694.48437307484, 1.3968750000000007E-07
DataValue, -4.8, -1, 2.5577E-06, -2.5513000000000005E-06, 1.789E-07, 391957.04150825064, 1.5981249999999991E-07
DataValue, -5.6000000000000005, -1, 2.6906E-06, -2.6906E-06, -2.1524599999999997E-08, 371664.31279268564, 1.5768749999999975E-07
DataValue, -6.4, -1, 2.8078000000000005E-06, -2.8036E-06, -1.54E-09, 356684.26309031242, 1.4518750000000021E-07
DataValue, -7.2, -1, 2.9327000000000003E-06, -2.9229000000000004E-06, 1.6858E-07, 342125.970782442, 1.6456250000000008E-07
DataValue, -8, -1, 3.0667000000000002E-06, -3.0669000000000002E-06, -2.21378E-08, 326062.14744530304, 1.6843749999999976E-07
DataValue, -8.8, -1, 3.1950000000000003E-06, -3.1924E-06, -2.756E-08, 313243.95439168025, 1.6218750000000017E-07
DataValue, -9.6, -1, 3.3322000000000005E-06, -3.3264000000000005E-06, 2.0448E-07, 300625.30062530056, 1.8168750000000007E-07
DataValue, -10.4, -1, 3.4845000000000003E-06, -3.4831E-06, -2.06386E-08, 287100.57133013691, 1.7881249999999991E-07
DataValue, -11.200000000000001, -1, 3.6151000000000003E-06, -3.6125000000000006E-06, -3.366E-08, 276816.60899653973, 1.6668750000000024E-07
DataValue, -12, -1, 3.7588000000000003E-06, -3.7498000000000005E-06, 1.1364E-07, 266680.88964744785, 1.886250000000002E-07
DataValue, -12.8, -1, 3.9128E-06, -3.9143000000000008E-06, -2.128E-08, 255473.52016963437, 1.8693749999999994E-07
DataValue, -13.6, -1, 4.06E-06, -4.0489E-06, -2.016E-08, 246980.66141421124, 1.7687499999999982E-07
DataValue, -14.4, -1, 4.2016000000000006E-06, -4.1973000000000005E-06, -2.422E-08, 238248.39777952491, 1.8600000000000005E-07
DataValue, -15.200000000000001, -1, 4.3523000000000007E-06, -4.3465000000000007E-06, -2.6812E-08, 230070.17140227766, 1.8912500000000023E-07
DataValue, -16, -1, 4.5041000000000006E-06, -4.4999000000000007E-06, -8.2E-10, 222227.16060356892, 1.9556250000000006E-07
DataValue, -16.8, -1, 4.6648000000000006E-06, -4.6594000000000007E-06, 1.0043999999999999E-07, 214619.90814267928, 2.1312499999999968E-07
DataValue, -17.6, -1, 4.8405000000000005E-06, -4.8409000000000005E-06, -2.64448E-08, 206573.15788386454, 2.0706249999999962E-07
DataValue, -18.400000000000002, -1, 4.9945E-06, -4.9907E-06, -2.8E-10, 200372.69320936941, 1.9437500000000031E-07
DataValue, -19.2, -1, 5.1584000000000005E-06, -5.1519000000000006E-06, 1.0676E-07, 194103.14641200332, 2.1975000000000039E-07
DataValue, -20, -1, 5.3412000000000006E-06, -5.3423000000000005E-06, -3.244E-08, 187185.29472324654, 2.129374999999998E-07
DataValue, -20.8, -1, 5.501E-06, -5.4926000000000006E-06, -1.866E-08, 182063.13949677747, 1.9781249999999999E-07
DataValue, -21.6, -1, 5.6705E-06, -5.6588000000000008E-06, -2.0919999999999998E-08, 176715.9115006715, 2.0949999999999967E-07
DataValue, -22.400000000000002, -1, 5.8350000000000009E-06, -5.8278E-06, -3.766E-08, 171591.33806925424, 2.1675000000000016E-07
DataValue, -23.2, -1, 6.0124E-06, -6.0056000000000006E-06, -7.8159999999999993E-08, 166511.25616091647, 2.3112500000000048E-07
DataValue, -24, -1, 6.2097000000000009E-06, -6.1976000000000006E-06, 2.98E-08, 161352.78172195688, 2.222500000000001E-07
DataValue, -24.8, -1, 6.3708000000000009E-06, -6.361200000000001E-06, 4.756E-08, 157203.04345092119, 2.1212499999999961E-07
DataValue, -25.6, -1, 6.5467E-06, -6.537E-06, 2.6139999999999998E-08, 152975.37096527458, 2.2006249999999954E-07
DataValue, -26.400000000000002, -1, 6.719300000000001E-06, -6.7133000000000006E-06, 6.14E-08, 148958.03852054876, 2.4375000000000063E-07
DataValue, -27.2, -1, 6.9320000000000007E-06, -6.9270000000000008E-06, -3.2099999999999996E-08, 144362.63894903997, 2.4018750000000023E-07
DataValue, -28, -1, 7.1068E-06, -7.0976000000000005E-06, -1.888E-08, 140892.696122633, 2.2206249999999969E-07
DataValue, -28.8, -1, 7.2926000000000011E-06, -7.2823000000000006E-06, -3.006E-08, 137319.25353253778, 2.3006249999999974E-07
DataValue, -29.6, -1, 7.4752000000000009E-06, -7.4657E-06, -2.2523199999999997E-08, 133945.91264047576, 2.3249999999999979E-07
DataValue, -30.400000000000002, -1, 7.659E-06, -7.6543E-06, 8.4E-10, 130645.51951190834, 2.3731250000000081E-07
DataValue, -31.2, -1, 7.8536E-06, -7.8454000000000012E-06, 7.3901999999999996E-09, 127463.22685905115, 2.4543750000000063E-07
DataValue, -32, -1, 8.0501000000000011E-06, -8.0470000000000011E-06, 2.96E-09, 124269.91425375915, 2.490625000000001E-07
DataValue, -32.8, -1, 8.2574000000000016E-06, -8.2439E-06, -1.1794E-07, 121301.81103603875, 2.6293749999999929E-07
DataValue, -33.6, -1, 8.4844000000000013E-06, -8.4677E-06, 1.658E-08, 118095.82295074222, 2.4906249999999957E-07
DataValue, -34.4, -1, 8.6532E-06, -8.6424E-06, 1.6964E-07, 115708.5994631121, 2.478125E-07
DataValue, -35.2, -1, 8.8671E-06, -8.8642E-06, -2.1132E-07, 112813.33904920917, 2.6418749999999992E-07
DataValue, -36, -1, 9.0738000000000011E-06, -9.0651E-06, 1.8196999999999997E-08, 110313.17911550892, 2.4800000000000042E-07
DataValue, -36.800000000000004, -1, 9.2651E-06, -9.2610000000000016E-06, 3.66E-08, 107979.69981643448, 2.4624999999999976E-07
DataValue, -37.6, -1, 9.472400000000001E-06, -9.4591E-06, -2.2206E-07, 105718.30300980008, 2.7225000000000076E-07
DataValue, -38.4, -1, 9.7092E-06, -9.6966000000000013E-06, 1.6833999999999998E-07, 103128.9317905245, 2.8175000000000026E-07
DataValue, -39.2, -1, 9.9144000000000012E-06, -9.9099000000000015E-06, -2.1222399999999998E-08, 100909.19181828271, 2.52625E-07
DataValue, -40, -1, 1.0105300000000001E-05, -1.0100800000000002E-05, -3.13E-08, 99002.059242832242, 5.001249999999994E-07
DataValue, -40, -1, 1.0072000000000001E-05, -1.031E-05, 1.1598E-07, 96993.210475266736, 1.1350000000000151E-07
DataValue, -39.2, -1, 9.8115E-06, -1.001E-05, 1.2062E-07, 99900.0999000999, 4.7199999999999904E-07
DataValue, -38.4, -1, 9.5464E-06, -9.5548E-06, 1.926E-08, 104659.4381881358, 4.3499999999999949E-07
DataValue, -37.6, -1, 9.3042000000000015E-06, -9.3140000000000009E-06, 2.57992E-08, 107365.25660296327, 2.9687500000000086E-07
DataValue, -36.800000000000004, -1, 9.0787000000000017E-06, -9.0798E-06, 8.8799999999999991E-09, 110134.58446221282, 2.9043750000000025E-07
DataValue, -36, -1, 8.8486E-06, -8.8493E-06, -1.058E-07, 113003.28839569232, 2.9931249999999959E-07
DataValue, -35.2, -1, 8.6051000000000017E-06, -8.6009000000000009E-06, 1.692E-08, 116266.90230092198, 2.84562499999999E-07
DataValue, -34.4, -1, 8.3887000000000015E-06, -8.3940000000000013E-06, 9.5431999999999991E-09, 119132.71384322133, 2.6549999999999962E-07
DataValue, -33.6, -1, 8.1736E-06, -8.1761000000000012E-06, 1.0459999999999999E-08, 122307.70171597703, 2.7093749999999984E-07
DataValue, -32.8, -1, 7.957E-06, -7.9605000000000011E-06, -1.2024E-07, 125620.24998429745, 2.8331250000000051E-07
DataValue, -32, -1, 7.7242000000000014E-06, -7.7228E-06, 2.5327999999999997E-08, 129486.71466307557, 2.6943750000000036E-07
DataValue, -31.2, -1, 7.5287000000000004E-06, -7.5294000000000011E-06, 1.014E-08, 132812.70751985547, 2.5087499999999984E-07
DataValue, -30.400000000000002, -1, 7.316500000000001E-06, -7.3214000000000007E-06, -1.1686E-07, 136585.89887180046, 2.7500000000000038E-07
