
SetupTitle, Id-Vgs
PrimitiveTest, I/V Sweep
TestParameter, Context.MainFrame, B1500A
TestParameter, Channel.UnitType, SMU, SMU, SMU
TestParameter, Channel.Unit, SMU1:MP, SMU4:MP, SMU5:MP
TestParameter, Channel.IName, Is, Id, Ig
TestParameter, Channel.VName, Vs, Vds, Vgs
TestParameter, Channel.Mode, V, V, V
TestParameter, Channel.Func, CONST, VAR2, VAR1
TestParameter, Channel.Index, 
TestParameter, Channel.Time, 
TestParameter, Measurement.Port.Unit, SMU1:MP, SMU4:MP, SMU5:MP
TestParameter, Measurement.Port.SeriesResistor, NONE, NONE, NONE
TestParameter, Measurement.Port.Filter, ON, ON, ON
TestParameter, Measurement.Port.OutputVoltageComparison, 0, 0, 0
TestParameter, Measurement.Primary.Locus, Double
TestParameter, Measurement.Primary.Scale, LINEAR
TestParameter, Measurement.Primary.Start, 40
TestParameter, Measurement.Primary.Stop, -40
TestParameter, Measurement.Primary.Step, -0.8
TestParameter, Measurement.Primary.Compliance, 1E-06
TestParameter, Measurement.Primary.PowerCompliance, 0
TestParameter, Measurement.Aborting.Condition, CONTINUE AT ANY
TestParameter, Measurement.PostOutput.Value, START
TestParameter, Measurement.PostOutput.Retention, OFF
TestParameter, Measurement.Secondary.Start, -1
TestParameter, Measurement.Secondary.Count, 1
TestParameter, Measurement.Secondary.Step, -0.5
TestParameter, Measurement.Secondary.Compliance, 0.0005
TestParameter, Measurement.Secondary.PowerCompliance, 0
TestParameter, Measurement.Bias.Source, 0, -1, 40
TestParameter, Measurement.Bias.Compliance, 0.1, 0.0005, 1E-06
TestParameter, Measurement.Monitor.Unit, SMU1:MP, SMU4:MP, SMU5:MP
TestParameter, Measurement.Monitor.Adc, HR ADC, HR ADC, HR ADC
TestParameter, Measurement.Monitor.Measurement, Compliance Side, Compliance Side, Compliance Side
TestParameter, Measurement.Monitor.RangingMode, LIMITED, LIMITED, LIMITED
TestParameter, Measurement.Monitor.RangeBoundary, 1nA, 1nA, 1nA
TestParameter, Measurement.Monitor.RangeRating, BY FULL RANGE, BY FULL RANGE, BY FULL RANGE
TestParameter, Measurement.Monitor.RangeRatingCoeff, 50, 50, 50
TestParameter, Measurement.Timing.Hold, 0
TestParameter, Measurement.Timing.Delay, 0
TestParameter, Measurement.Adc.HighSpeed.Mode, AUTO
TestParameter, Measurement.Adc.HighSpeed.Coeff, 1
TestParameter, Measurement.Adc.HighResolution.AutoZero, OFF
TestParameter, Measurement.Adc.HighResolution.Mode, AUTO
TestParameter, Measurement.Adc.HighResolution.Coeff, 4
TestParameter, Measurement.WaitTime.Source.Coeff, 1
TestParameter, Measurement.WaitTime.Source.Offset, 0
TestParameter, Measurement.WaitTime.Monitor.Coeff, 1
TestParameter, Measurement.WaitTime.Monitor.Offset, 0
TestParameter, Function.User.Name, R, gm
TestParameter, Function.User.Unit, Ohms, S
TestParameter, Function.User.Definition, Vds/Id, delta(Id)/delta(Vgs)
TestParameter, Output.Graph.Enabled, true
TestParameter, Output.Graph.XAxis.Data, Vgs
TestParameter, Output.Graph.XAxis.Scale, Linear
TestParameter, Output.Graph.XAxis.Left, -50
TestParameter, Output.Graph.XAxis.Right, 50
TestParameter, Output.Graph.YAxis.Data, Id, Is, Ig
TestParameter, Output.Graph.YAxis.Scale, Log, Log, Log
TestParameter, Output.Graph.YAxis.Bottom, -1E-13, 1E-13, 1E-11
TestParameter, Output.Graph.YAxis.Top, -2E-05, 2E-05, 1E-07
TestParameter, Output.Graph.YAxis.Group, , , 
TestParameter, Output.List.Data, Vgs, Vds, Id, Is, Ig, R, gm
TestParameter, AutoAnalysis.Interpolation, false
TestParameter, AutoAnalysis.Line1.Enabled, false
TestParameter, AutoAnalysis.Line1.Type, 1
TestParameter, AutoAnalysis.Line1.Fix, True
TestParameter, AutoAnalysis.Line1.YAxis, 0
TestParameter, AutoAnalysis.Line1.Point1.Type, 0
TestParameter, AutoAnalysis.Line1.Point1.XY.X, 
TestParameter, AutoAnalysis.Line1.Point1.XY.Y, 
TestParameter, AutoAnalysis.Line1.Point1.Data.Var, 
TestParameter, AutoAnalysis.Line1.Point1.Data.Condition, 
TestParameter, AutoAnalysis.Line1.Point1.Data.Start, false
TestParameter, AutoAnalysis.Line1.Point1.Data.StartVar, 
TestParameter, AutoAnalysis.Line1.Point1.Data.StartCondition, 
TestParameter, AutoAnalysis.Line1.Point2.Type, 0
TestParameter, AutoAnalysis.Line1.Point2.XY.X, 
TestParameter, AutoAnalysis.Line1.Point2.XY.Y, 
TestParameter, AutoAnalysis.Line1.Point2.Data.Var, 
TestParameter, AutoAnalysis.Line1.Point2.Data.Condition, 
TestParameter, AutoAnalysis.Line1.Point2.Data.Start, false
TestParameter, AutoAnalysis.Line1.Point2.Data.StartVar, 
TestParameter, AutoAnalysis.Line1.Point2.Data.StartCondition, 
TestParameter, AutoAnalysis.Line1.GradientExpr, 0
TestParameter, AutoAnalysis.Line2.Enabled, false
TestParameter, AutoAnalysis.Line2.Type, 1
TestParameter, AutoAnalysis.Line2.Fix, True
TestParameter, AutoAnalysis.Line2.YAxis, 0
TestParameter, AutoAnalysis.Line2.Point1.Type, 0
TestParameter, AutoAnalysis.Line2.Point1.XY.X, 
TestParameter, AutoAnalysis.Line2.Point1.XY.Y, 
TestParameter, AutoAnalysis.Line2.Point1.Data.Var, 
TestParameter, AutoAnalysis.Line2.Point1.Data.Condition, 
TestParameter, AutoAnalysis.Line2.Point1.Data.Start, false
TestParameter, AutoAnalysis.Line2.Point1.Data.StartVar, 
TestParameter, AutoAnalysis.Line2.Point1.Data.StartCondition, 
TestParameter, AutoAnalysis.Line2.Point2.Type, 0
TestParameter, AutoAnalysis.Line2.Point2.XY.X, 
TestParameter, AutoAnalysis.Line2.Point2.XY.Y, 
TestParameter, AutoAnalysis.Line2.Point2.Data.Var, 
TestParameter, AutoAnalysis.Line2.Point2.Data.Condition, 
TestParameter, AutoAnalysis.Line2.Point2.Data.Start, false
TestParameter, AutoAnalysis.Line2.Point2.Data.StartVar, 
TestParameter, AutoAnalysis.Line2.Point2.Data.StartCondition, 
TestParameter, AutoAnalysis.Line2.GradientExpr, 0
TestParameter, AutoAnalysis.Marker.Enabled, false
TestParameter, AutoAnalysis.Marker.Data.Var, 
TestParameter, AutoAnalysis.Marker.Data.Condition, 
TestParameter, AutoAnalysis.Marker.Data.Start, false
TestParameter, AutoAnalysis.Marker.Data.StartVar, 
TestParameter, AutoAnalysis.Marker.Data.StartCondition, 
MetaData, TestRecord.EntryPoint, true
MetaData, TestRecord.RecordTime, 02/28/2018 02:24:42
MetaData, TestRecord.TestTarget, 180207S4_d3_r2_lch100
MetaData, TestRecord.IterationIndex, 66
MetaData, TestRecord.Preservation, true
MetaData, TestRecord.Flag, 
MetaData, TestRecord.Remarks, 
MetaData, TestRecord.LinkKey, 2047ca03-a6ca-4897-8ca9-ac8a281b9260
Dimension1, 202, 202, 202, 202, 202, 202, 202
Dimension2, 1, 1, 1, 1, 1, 1, 1
DataName, Vgs, Vds, Is, Id, Ig, R, gm
DataValue, 40, -1, 4.8289799999999993E-08, -5.0425799999999994E-08, -2.244E-08, 19831118.197430681, -1.8226750000000064E-08
DataValue, 39.2, -1, 3.5533199999999996E-08, -3.5844399999999995E-08, 3.064E-08, 27898360.692325722, -1.1112249999999988E-08
DataValue, 38.4, -1, 3.1461E-08, -3.26462E-08, 3.038E-08, 30631436.430579979, -4.3372499999999939E-09
DataValue, 37.6, -1, 2.55184E-08, -2.89048E-08, -1.3689799999999998E-08, 34596330.021311343, -9.0862500000000328E-09
DataValue, 36.800000000000004, -1, 1.98546E-08, -1.8108199999999997E-08, 1.69408E-08, 55223600.357848942, -5.5021249999999962E-09
DataValue, 36, -1, 1.6681E-08, -2.0101399999999998E-08, -1.6223E-08, 49747778.761678293, -4.4643749999999949E-09
DataValue, 35.2, -1, 1.3785399999999999E-08, -1.0965199999999999E-08, 2.0428199999999997E-08, 91197606.974792987, -3.5251249999999961E-09
DataValue, 34.4, -1, 1.1020999999999998E-08, -1.4461199999999999E-08, -2.0553599999999998E-08, 69150554.587447792, 7.8537499999999978E-10
DataValue, 33.6, -1, 1.18022E-08, -1.22218E-08, -2.2222399999999997E-08, 81821008.362107053, -2.9843749999999972E-09
DataValue, 32.8, -1, 9.8201999999999988E-09, -9.6861999999999991E-09, 2.798E-08, 103239660.54799613, -5.8494999999999939E-09
DataValue, 32, -1, 8.4471999999999987E-09, -2.8626E-09, 1.4526599999999998E-08, 349332774.40089428, -2.298375000000003E-09
DataValue, 31.2, -1, 5.0331E-09, -6.0087999999999994E-09, 5.484E-08, 166422580.21568367, 1.2572500000000018E-09
DataValue, 30.400000000000002, -1, 3.8821E-09, -4.8742E-09, -1.325E-07, 205161872.71757415, -1.4181250000000017E-09
DataValue, 29.6, -1, 4.5129E-09, -3.7398E-09, 1.5038E-07, 267393978.28760898, -2.1838749999999985E-09
DataValue, 28.8, -1, 9.6437E-09, -1.38E-09, 1.7738199999999997E-08, 724637681.15942025, 1.4239374999999989E-09
DataValue, 28, -1, 7.6643999999999985E-09, -6.0181E-09, 3.208E-08, 166165401.04019541, 4.5759999999999958E-09
DataValue, 27.2, -1, 1.0784999999999999E-08, -8.701599999999999E-09, 2.816E-08, 114921393.76666361, 4.6774375000000057E-09
DataValue, 26.400000000000002, -1, 1.19038E-08, -1.3501999999999999E-08, -2.3E-08, 74063101.762701824, 1.5266250000000025E-09
DataValue, 25.6, -1, 1.4242399999999998E-08, -1.11442E-08, 2.538E-08, 89732775.7936864, 4.3659999999999967E-09
DataValue, 24.8, -1, 2.1691399999999997E-08, -2.04876E-08, 2.81E-08, 48810011.909642905, 1.0970124999999987E-08
DataValue, 24, -1, 2.71844E-08, -2.8696399999999996E-08, -1.5450999999999997E-08, 34847576.699516319, 6.6504999999999906E-09
DataValue, 23.2, -1, 3.47434E-08, -3.1128399999999994E-08, 1.5493599999999998E-08, 32125004.818750728, 1.1361125000000017E-08
DataValue, 22.400000000000002, -1, 4.53294E-08, -4.68742E-08, -1.7963199999999998E-08, 21333697.428436112, 1.3570250000000017E-08
DataValue, 21.6, -1, 5.6826199999999993E-08, -5.2840799999999992E-08, 1.77968E-08, 18924770.25328913, 1.6065499999999983E-08
DataValue, 20.8, -1, 7.0838799999999992E-08, -7.2578999999999991E-08, -2.0622799999999998E-08, 13778090.081152953, 1.844699999999998E-08
DataValue, 20, -1, 8.6661E-08, -8.2355999999999987E-08, 2.1240999999999998E-08, 12142406.139200546, 1.8357999999999981E-08
DataValue, 19.2, -1, 1.0562E-07, -1.0195179999999999E-07, 8.22E-08, 9808556.5924289729, 2.6227500000000037E-08
DataValue, 18.400000000000002, -1, 1.2418E-07, -1.2432E-07, -1.5528E-07, 8043758.043758044, 2.5055125000000038E-08
DataValue, 17.6, -1, 1.4938E-07, -1.4204E-07, 1.8226799999999997E-08, 7040270.3463813011, 2.9862499999999967E-08
DataValue, 16.8, -1, 1.7438E-07, -1.7209999999999999E-07, -2.836E-08, 5810575.2469494483, 3.5324999999999974E-08
DataValue, 16, -1, 2.0099999999999999E-07, -1.9856E-07, 1.7636E-07, 5036261.0797743751, 3.8725000000000011E-08
DataValue, 15.200000000000001, -1, 2.3159999999999998E-07, -2.3406E-07, -1.458E-07, 4272408.7840724606, 3.67E-08
DataValue, 14.4, -1, 2.6585999999999997E-07, -2.5728E-07, 9.168E-08, 3886815.9203980104, 4.3124999999999978E-08
DataValue, 13.6, -1, 3.0077999999999997E-07, -3.0306E-07, -7.764E-08, 3299676.6316900942, 4.9487500000000012E-08
DataValue, 12.8, -1, 3.4212E-07, -3.3646E-07, -5.034E-08, 2972121.5003269333, 4.755E-08
DataValue, 12, -1, 3.7628E-07, -3.7914E-07, -2.92E-08, 2637548.1352534685, 5.3262500000000024E-08
DataValue, 11.200000000000001, -1, 4.2426E-07, -4.2168E-07, 1.4748E-07, 2371466.5148928096, 5.8662500000000027E-08
DataValue, 10.4, -1, 4.6984E-07, -4.73E-07, -1.41E-07, 2114164.9048625794, 5.6562499999999961E-08
DataValue, 9.6, -1, 5.2003999999999994E-07, -5.1218E-07, 6.41E-08, 1952438.5958061619, 6.23375E-08
DataValue, 8.8, -1, 5.71E-07, -5.7274E-07, -3.0179999999999996E-08, 1745992.9461884974, 6.7899999999999979E-08
DataValue, 8, -1, 6.2656E-07, -6.2082E-07, 9.496E-08, 1610772.8488128604, 6.6462499999999964E-08
DataValue, 7.2, -1, 6.7628E-07, -6.7908E-07, -1.9486199999999997E-08, 1472580.5501560937, 7.36375E-08
DataValue, 6.4, -1, 7.3965999999999994E-07, -7.3864E-07, 2.632E-08, 1353839.4887902092, 7.9737500000000035E-08
DataValue, 5.6000000000000005, -1, 8.0616E-07, -8.0666E-07, -1.8103999999999999E-07, 1239679.6667741055, 7.7849999999999972E-08
DataValue, 4.8, -1, 8.7156E-07, -8.632E-07, -4.14E-09, 1158480.0741427247, 8.1774999999999989E-08
DataValue, 4, -1, 9.4388E-07, -9.375E-07, -3.562E-08, 1066666.6666666667, 9.3162500000000051E-08
DataValue, 3.2, -1, 1.0014E-06, -1.01226E-06, -1.7888E-07, 987888.48714757082, 8.7812499999999914E-08
DataValue, 2.4, -1, 1.0731000000000002E-06, -1.0779999999999999E-06, 8.3286E-09, 927643.78478664206, 8.4650000000000033E-08
DataValue, 1.6, -1, 1.1551000000000002E-06, -1.1477E-06, 8.698E-08, 871307.83305741916, 9.7250000000000173E-08
DataValue, 0.8, -1, 1.2327E-06, -1.2336000000000001E-06, -1.414E-07, 810635.53826199728, 9.65000000000001E-08
DataValue, 0, -1, 1.3093000000000001E-06, -1.3021000000000002E-06, 3.6884E-09, 767990.16972582741, 9.5812500000000051E-08
DataValue, -0.8, -1, 1.3892000000000002E-06, -1.3869000000000002E-06, -3.288E-08, 721032.51856658724, 1.0806249999999991E-07
DataValue, -1.6, -1, 1.4770000000000002E-06, -1.475E-06, 1.7726E-07, 677966.10169491521, 1.0956249999999991E-07
DataValue, -2.4, -1, 1.5636000000000002E-06, -1.5622E-06, -1.62102E-08, 640122.90359749075, 1.1287500000000001E-07
DataValue, -3.2, -1, 1.6565000000000002E-06, -1.6556E-06, -3.8419999999999996E-08, 604010.63058709831, 1.2012500000000003E-07
DataValue, -4, -1, 1.757E-06, -1.7544E-06, 1.7704E-07, 569995.44003647973, 1.2181250000000005E-07
DataValue, -4.8, -1, 1.8515000000000002E-06, -1.8505000000000001E-06, -1.46546E-08, 540394.48797622265, 1.24E-07
DataValue, -5.6000000000000005, -1, 1.9531E-06, -1.9528E-06, -4.168E-08, 512085.21097910689, 1.3068749999999997E-07
DataValue, -6.4, -1, 2.0616000000000003E-06, -2.0596E-06, 1.7776E-07, 485531.17110118468, 1.3249999999999992E-07
DataValue, -7.2, -1, 2.1656E-06, -2.1648E-06, -1.52554E-08, 461936.43754619366, 1.3606250000000006E-07
DataValue, -8, -1, 2.2773E-06, -2.2773E-06, -4.176E-08, 439116.49760681507, 1.4312500000000011E-07
DataValue, -8.8, -1, 2.3959000000000002E-06, -2.3938000000000003E-06, 1.288E-08, 417745.84342885786, 1.4206249999999998E-07
DataValue, -9.6, -1, 2.5051000000000004E-06, -2.5046E-06, -4.22E-09, 399265.35175277485, 1.4506249999999994E-07
DataValue, -10.4, -1, 2.6308000000000003E-06, -2.6259E-06, 6.596E-08, 380821.81347347575, 1.5062500000000007E-07
DataValue, -11.200000000000001, -1, 2.7438000000000003E-06, -2.7456000000000004E-06, -3.394E-08, 364219.11421911418, 1.5312500000000015E-07
DataValue, -12, -1, 2.8725000000000004E-06, -2.8709000000000003E-06, -7.088E-08, 348322.82559476118, 1.4724999999999997E-07
DataValue, -12.8, -1, 2.9896E-06, -2.9812000000000004E-06, 1.3494E-07, 335435.39514289546, 1.5200000000000006E-07
DataValue, -13.6, -1, 3.1139000000000004E-06, -3.1141000000000004E-06, -1.0189999999999999E-07, 321120.06679297384, 1.5518749999999991E-07
DataValue, -14.4, -1, 3.2371000000000003E-06, -3.2295E-06, -5.6399999999999995E-09, 309645.45595293387, 1.5912499999999991E-07
DataValue, -15.200000000000001, -1, 3.3743000000000005E-06, -3.3687000000000005E-06, 8.178E-08, 296850.417074836, 1.7350000000000009E-07
DataValue, -16, -1, 3.5043000000000005E-06, -3.5071000000000003E-06, -3.246E-08, 285135.86724074022, 1.744999999999999E-07
DataValue, -16.8, -1, 3.6498E-06, -3.6479000000000003E-06, -8.2699999999999993E-08, 274130.32155486714, 1.67875E-07
DataValue, -17.6, -1, 3.7846000000000006E-06, -3.7757000000000005E-06, 8.156E-08, 264851.55070582934, 1.7418750000000009E-07
DataValue, -18.400000000000002, -1, 3.9223000000000005E-06, -3.9266000000000007E-06, -1.492E-08, 254673.25421484231, 1.8512500000000038E-07
DataValue, -19.2, -1, 4.0744E-06, -4.0719000000000008E-06, -2.684E-08, 245585.59886048277, 1.7350000000000004E-07
DataValue, -20, -1, 4.2127E-06, -4.2042E-06, 5.588E-08, 237857.38071452355, 1.8037499999999989E-07
DataValue, -20.8, -1, 4.3600000000000006E-06, -4.3605000000000009E-06, -1.215E-07, 229331.49868134383, 1.8243749999999965E-07
DataValue, -21.6, -1, 4.5036E-06, -4.4961E-06, 1.0086E-07, 222414.98187317897, 1.8049999999999964E-07
DataValue, -22.400000000000002, -1, 4.6485000000000005E-06, -4.6493000000000005E-06, -1.4207999999999999E-07, 215086.14199987092, 1.8906250000000031E-07
DataValue, -23.2, -1, 4.8044E-06, -4.7986E-06, 4.7813999999999992E-09, 208394.11495019379, 1.9850000000000036E-07
DataValue, -24, -1, 4.9666000000000009E-06, -4.9669000000000007E-06, 7.8E-09, 201332.82329018097, 2.0587500000000019E-07
DataValue, -24.8, -1, 5.1323000000000008E-06, -5.1280000000000007E-06, -9.968E-08, 195007.80031201246, 1.9043749999999972E-07
DataValue, -25.6, -1, 5.2803000000000009E-06, -5.2716000000000005E-06, 1.4132E-07, 189695.72805220424, 1.914374999999998E-07
DataValue, -26.400000000000002, -1, 5.4358000000000005E-06, -5.4343000000000006E-06, -7.9528E-09, 184016.3406510498, 1.9781250000000044E-07
DataValue, -27.2, -1, 5.591E-06, -5.5881000000000008E-06, -1.126E-08, 178951.70093591738, 1.9868750000000024E-07
DataValue, -28, -1, 5.7509E-06, -5.7522000000000006E-06, 9.692E-08, 173846.52828483013, 2.036249999999995E-07
DataValue, -28.8, -1, 5.9142000000000009E-06, -5.9139E-06, -1.834E-08, 169093.15341821808, 2.1068749999999963E-07
DataValue, -29.6, -1, 6.0930000000000008E-06, -6.0893E-06, -5.9845999999999994E-09, 164222.48862759266, 2.1106249999999992E-07
DataValue, -30.400000000000002, -1, 6.2524000000000005E-06, -6.2516E-06, -1.2999999999999999E-08, 159959.05048307631, 2.1056250000000036E-07
DataValue, -31.2, -1, 6.4301000000000005E-06, -6.4262E-06, 1.2946E-07, 155612.95944726275, 2.1568750000000048E-07
DataValue, -32, -1, 6.6008E-06, -6.5967000000000007E-06, -1.9579E-08, 151590.94698864583, 2.1381250000000061E-07
DataValue, -32.8, -1, 6.7704000000000004E-06, -6.7683000000000009E-06, -1.806E-08, 147747.58802062555, 2.1624999999999965E-07
DataValue, -33.6, -1, 6.9484000000000011E-06, -6.9427000000000005E-06, 1.5578E-07, 144036.18188889048, 2.2099999999999948E-07
DataValue, -34.4, -1, 7.1256000000000009E-06, -7.1219E-06, -7.5E-08, 140411.96871621336, 2.2250000000000012E-07
DataValue, -35.2, -1, 7.3040000000000007E-06, -7.2987000000000009E-06, 2.214E-08, 137010.70053571183, 2.2256250000000026E-07
DataValue, -36, -1, 7.4814000000000009E-06, -7.4780000000000011E-06, 6.868E-08, 133725.59507889807, 2.3212500000000002E-07
DataValue, -36.800000000000004, -1, 7.6709000000000014E-06, -7.6701000000000013E-06, -1.406E-07, 130376.39665714916, 2.2825E-07
DataValue, -37.6, -1, 7.8496E-06, -7.8432000000000014E-06, 1.9069999999999997E-09, 127498.98000815991, 2.2400000000000068E-07
DataValue, -38.4, -1, 8.0312E-06, -8.0285000000000011E-06, 1.182E-08, 124556.26829420189, 2.3287499999999902E-07
DataValue, -39.2, -1, 8.2201000000000011E-06, -8.2158E-06, -9.194E-08, 121716.69222717203, 2.2674999999999935E-07
DataValue, -40, -1, 8.399300000000001E-06, -8.3913E-06, 5.635E-09, 119171.04620261461, 2.2562500000000213E-07
DataValue, -40, -1, 8.3937E-06, -8.3963000000000012E-06, -1.962E-08, 119100.07979705345, 2.3062500000000041E-07
DataValue, -39.2, -1, 8.2134E-06, -8.2068E-06, -1.966E-08, 121850.17302724569, 2.3706249999999973E-07
DataValue, -38.4, -1, 8.0181E-06, -8.0170000000000013E-06, -1.4501999999999998E-07, 124734.93825620554, 2.450000000000002E-07
DataValue, -37.6, -1, 7.8130000000000013E-06, -7.8148E-06, 4.204E-09, 127962.32789066898, 2.3525000000000105E-07
DataValue, -36.800000000000004, -1, 7.6389E-06, -7.640600000000001E-06, -3.1539999999999997E-08, 130879.77383975079, 2.1924999999999935E-07
DataValue, -36, -1, 7.463E-06, -7.4640000000000009E-06, -4.422E-08, 133976.42015005357, 2.3087499999999993E-07
DataValue, -35.2, -1, 7.2751000000000009E-06, -7.2712000000000008E-06, 1.4294E-07, 137528.88106502363, 2.2262499999999986E-07
DataValue, -34.4, -1, 7.1037000000000011E-06, -7.1078000000000008E-06, -3.6247999999999997E-09, 140690.50901826163, 2.0943750000000007E-07
DataValue, -33.6, -1, 6.935600000000001E-06, -6.9361E-06, -1.684E-08, 144173.23856345785, 2.1268749999999978E-07
DataValue, -32.8, -1, 6.7647000000000006E-06, -6.7675000000000009E-06, 7.972E-08, 147765.05356483191, 2.1031249999999987E-07
DataValue, -32, -1, 6.5943000000000005E-06, -6.5996E-06, -2.08E-08, 151524.33480817018, 2.0618750000000027E-07
DataValue, -31.2, -1, 6.4385E-06, -6.4376000000000008E-06, 1.624E-07, 155337.39281719894, 2.030625000000003E-07
DataValue, -30.400000000000002, -1, 6.270800000000001E-06, -6.2747E-06, -1.4081599999999998E-08, 159370.16909174941, 2.0250000000000066E-07
DataValue, -29.6, -1, 6.1123000000000008E-06, -6.1136E-06, -3.624E-08, 163569.746139754, 2.036249999999995E-07
