
SetupTitle, Id-Vgs
PrimitiveTest, I/V Sweep
TestParameter, Context.MainFrame, B1500A
TestParameter, Channel.UnitType, SMU, SMU, SMU
TestParameter, Channel.Unit, SMU1:MP, SMU4:MP, SMU5:MP
TestParameter, Channel.IName, Is, Id, Ig
TestParameter, Channel.VName, Vs, Vds, Vgs
TestParameter, Channel.Mode, V, V, V
TestParameter, Channel.Func, CONST, VAR2, VAR1
TestParameter, Channel.Index, 
TestParameter, Channel.Time, 
TestParameter, Measurement.Port.Unit, SMU1:MP, SMU4:MP, SMU5:MP
TestParameter, Measurement.Port.SeriesResistor, NONE, NONE, NONE
TestParameter, Measurement.Port.Filter, ON, ON, ON
TestParameter, Measurement.Port.OutputVoltageComparison, 0, 0, 0
TestParameter, Measurement.Primary.Locus, Double
TestParameter, Measurement.Primary.Scale, LINEAR
TestParameter, Measurement.Primary.Start, 40
TestParameter, Measurement.Primary.Stop, -40
TestParameter, Measurement.Primary.Step, -0.8
TestParameter, Measurement.Primary.Compliance, 1E-06
TestParameter, Measurement.Primary.PowerCompliance, 0
TestParameter, Measurement.Aborting.Condition, CONTINUE AT ANY
TestParameter, Measurement.PostOutput.Value, START
TestParameter, Measurement.PostOutput.Retention, OFF
TestParameter, Measurement.Secondary.Start, -1
TestParameter, Measurement.Secondary.Count, 1
TestParameter, Measurement.Secondary.Step, -0.5
TestParameter, Measurement.Secondary.Compliance, 0.0005
TestParameter, Measurement.Secondary.PowerCompliance, 0
TestParameter, Measurement.Bias.Source, 0, -1, 40
TestParameter, Measurement.Bias.Compliance, 0.1, 0.0005, 1E-06
TestParameter, Measurement.Monitor.Unit, SMU1:MP, SMU4:MP, SMU5:MP
TestParameter, Measurement.Monitor.Adc, HR ADC, HR ADC, HR ADC
TestParameter, Measurement.Monitor.Measurement, Compliance Side, Compliance Side, Compliance Side
TestParameter, Measurement.Monitor.RangingMode, LIMITED, LIMITED, LIMITED
TestParameter, Measurement.Monitor.RangeBoundary, 1nA, 1nA, 1nA
TestParameter, Measurement.Monitor.RangeRating, BY FULL RANGE, BY FULL RANGE, BY FULL RANGE
TestParameter, Measurement.Monitor.RangeRatingCoeff, 50, 50, 50
TestParameter, Measurement.Timing.Hold, 0
TestParameter, Measurement.Timing.Delay, 0
TestParameter, Measurement.Adc.HighSpeed.Mode, AUTO
TestParameter, Measurement.Adc.HighSpeed.Coeff, 1
TestParameter, Measurement.Adc.HighResolution.AutoZero, OFF
TestParameter, Measurement.Adc.HighResolution.Mode, AUTO
TestParameter, Measurement.Adc.HighResolution.Coeff, 4
TestParameter, Measurement.WaitTime.Source.Coeff, 1
TestParameter, Measurement.WaitTime.Source.Offset, 0
TestParameter, Measurement.WaitTime.Monitor.Coeff, 1
TestParameter, Measurement.WaitTime.Monitor.Offset, 0
TestParameter, Function.User.Name, R, gm
TestParameter, Function.User.Unit, Ohms, S
TestParameter, Function.User.Definition, Vds/Id, delta(Id)/delta(Vgs)
TestParameter, Output.Graph.Enabled, true
TestParameter, Output.Graph.XAxis.Data, Vgs
TestParameter, Output.Graph.XAxis.Scale, Linear
TestParameter, Output.Graph.XAxis.Left, -50
TestParameter, Output.Graph.XAxis.Right, 50
TestParameter, Output.Graph.YAxis.Data, Id, Is, Ig
TestParameter, Output.Graph.YAxis.Scale, Log, Log, Log
TestParameter, Output.Graph.YAxis.Bottom, -1E-13, 1E-13, 1E-11
TestParameter, Output.Graph.YAxis.Top, -2E-05, 2E-05, 1E-07
TestParameter, Output.Graph.YAxis.Group, , , 
TestParameter, Output.List.Data, Vgs, Vds, Id, Is, Ig, R, gm
TestParameter, AutoAnalysis.Interpolation, false
TestParameter, AutoAnalysis.Line1.Enabled, false
TestParameter, AutoAnalysis.Line1.Type, 1
TestParameter, AutoAnalysis.Line1.Fix, True
TestParameter, AutoAnalysis.Line1.YAxis, 0
TestParameter, AutoAnalysis.Line1.Point1.Type, 0
TestParameter, AutoAnalysis.Line1.Point1.XY.X, 
TestParameter, AutoAnalysis.Line1.Point1.XY.Y, 
TestParameter, AutoAnalysis.Line1.Point1.Data.Var, 
TestParameter, AutoAnalysis.Line1.Point1.Data.Condition, 
TestParameter, AutoAnalysis.Line1.Point1.Data.Start, false
TestParameter, AutoAnalysis.Line1.Point1.Data.StartVar, 
TestParameter, AutoAnalysis.Line1.Point1.Data.StartCondition, 
TestParameter, AutoAnalysis.Line1.Point2.Type, 0
TestParameter, AutoAnalysis.Line1.Point2.XY.X, 
TestParameter, AutoAnalysis.Line1.Point2.XY.Y, 
TestParameter, AutoAnalysis.Line1.Point2.Data.Var, 
TestParameter, AutoAnalysis.Line1.Point2.Data.Condition, 
TestParameter, AutoAnalysis.Line1.Point2.Data.Start, false
TestParameter, AutoAnalysis.Line1.Point2.Data.StartVar, 
TestParameter, AutoAnalysis.Line1.Point2.Data.StartCondition, 
TestParameter, AutoAnalysis.Line1.GradientExpr, 0
TestParameter, AutoAnalysis.Line2.Enabled, false
TestParameter, AutoAnalysis.Line2.Type, 1
TestParameter, AutoAnalysis.Line2.Fix, True
TestParameter, AutoAnalysis.Line2.YAxis, 0
TestParameter, AutoAnalysis.Line2.Point1.Type, 0
TestParameter, AutoAnalysis.Line2.Point1.XY.X, 
TestParameter, AutoAnalysis.Line2.Point1.XY.Y, 
TestParameter, AutoAnalysis.Line2.Point1.Data.Var, 
TestParameter, AutoAnalysis.Line2.Point1.Data.Condition, 
TestParameter, AutoAnalysis.Line2.Point1.Data.Start, false
TestParameter, AutoAnalysis.Line2.Point1.Data.StartVar, 
TestParameter, AutoAnalysis.Line2.Point1.Data.StartCondition, 
TestParameter, AutoAnalysis.Line2.Point2.Type, 0
TestParameter, AutoAnalysis.Line2.Point2.XY.X, 
TestParameter, AutoAnalysis.Line2.Point2.XY.Y, 
TestParameter, AutoAnalysis.Line2.Point2.Data.Var, 
TestParameter, AutoAnalysis.Line2.Point2.Data.Condition, 
TestParameter, AutoAnalysis.Line2.Point2.Data.Start, false
TestParameter, AutoAnalysis.Line2.Point2.Data.StartVar, 
TestParameter, AutoAnalysis.Line2.Point2.Data.StartCondition, 
TestParameter, AutoAnalysis.Line2.GradientExpr, 0
TestParameter, AutoAnalysis.Marker.Enabled, false
TestParameter, AutoAnalysis.Marker.Data.Var, 
TestParameter, AutoAnalysis.Marker.Data.Condition, 
TestParameter, AutoAnalysis.Marker.Data.Start, false
TestParameter, AutoAnalysis.Marker.Data.StartVar, 
TestParameter, AutoAnalysis.Marker.Data.StartCondition, 
MetaData, TestRecord.EntryPoint, true
MetaData, TestRecord.RecordTime, 02/20/2018 02:37:41
MetaData, TestRecord.TestTarget, 180207S3_d3_r1_lch100
MetaData, TestRecord.IterationIndex, 56
MetaData, TestRecord.Preservation, true
MetaData, TestRecord.Flag, ?
MetaData, TestRecord.Remarks, 
MetaData, TestRecord.LinkKey, 6aac3314-da8d-40f9-957a-0e38bbe22c45
Dimension1, 202, 202, 202, 202, 202, 202, 202
Dimension2, 1, 1, 1, 1, 1, 1, 1
DataName, Vgs, Vds, Is, Id, Ig, R, gm
DataValue, 40, -1, -1.3426799999999999E-08, 2.3973E-09, -2.948E-08, -417135944.60434657, -4.6687500000000166E-10
DataValue, 39.2, -1, -8.8682E-09, 2.7708E-09, -4.606E-08, -360906597.37259996, 7.2568749999999941E-10
DataValue, 38.4, -1, -6.819399999999999E-09, 1.2362E-09, -3.904E-08, -808930593.7550559, 2.156062499999998E-09
DataValue, 37.6, -1, -4.9776E-09, -6.789E-10, 2.3894E-07, 1472970982.4716454, 2.3779375000000085E-09
DataValue, 36.800000000000004, -1, -3.7319E-09, -2.5685E-09, -5.038E-08, 389332295.11387968, 2.5024999999999978E-10
DataValue, 36, -1, -3.7214E-09, -1.0793E-09, -5.044E-08, 926526452.330214, 5.4549999999999962E-10
DataValue, 35.2, -1, -3.482E-10, -3.4413E-09, -3.934E-08, 290587859.239241, 1.3405624999999987E-09
DataValue, 34.4, -1, 3.9688E-09, -3.2242E-09, 4.94E-08, 310154456.91954595, -4.0142499999999966E-09
DataValue, 33.6, -1, -1.4905E-09, 2.9815E-09, -1.1758E-07, -335401643.468053, -4.3899999999999957E-10
DataValue, 32.8, -1, -4.6255999999999994E-09, -2.5218E-09, 5.244E-08, 396542152.43080336, 3.9066249999999961E-09
DataValue, 32, -1, -1.986E-10, -3.2691E-09, -5.538E-08, 305894588.72472548, 6.4293750000000081E-10
DataValue, 31.2, -1, 4.124E-09, -3.5505E-09, 6.366E-08, 281650471.7645402, 1.7300000000000031E-10
DataValue, 30.400000000000002, -1, -4.28E-11, -3.5459E-09, 6.672E-08, 282015849.29073012, -1.5488750000000021E-09
DataValue, 29.6, -1, -4.736E-10, -1.0723E-09, 7.054E-08, 932574839.1308403, -2.349375E-10
DataValue, 28.8, -1, -1.782E-09, -3.1699999999999996E-09, -5.768E-08, 315457413.24921137, 6.5131249999999955E-10
DataValue, 28, -1, 7.4679999999999994E-10, -2.1144E-09, 6.538E-08, 472947408.2482028, -4.3849999999999942E-10
DataValue, 27.2, -1, 2.8385E-09, -2.4684E-09, -5.606E-08, 405120725.97634095, 7.1343750000000083E-10
DataValue, 26.400000000000002, -1, 6.761999999999999E-10, -3.2559E-09, -2.187E-07, 307134740.01044261, 5.5743750000000085E-10
DataValue, 25.6, -1, 5.9398E-09, -3.3603E-09, -1.6906E-07, 297592476.86218494, 1.115625E-10
DataValue, 24.8, -1, 6.8933999999999994E-09, -3.4344E-09, -1.4044E-07, 291171674.81947356, 6.56249999999999E-11
DataValue, 24, -1, 6.913799999999999E-09, -3.4653E-09, -4.368E-08, 288575303.72550714, -2.4071249999999981E-09
DataValue, 23.2, -1, 3.9498E-09, 4.17E-10, -5.422E-08, -2398081534.772182, -4.0095625000000053E-09
DataValue, 22.400000000000002, -1, 4.0648E-09, 2.95E-09, -1.1874E-07, -338983050.84745765, 1.9268125000000027E-09
DataValue, 21.6, -1, -2.4116E-09, -2.6659E-09, 4.9E-08, 375107843.50500768, -4.3356249999999976E-10
DataValue, 20.8, -1, 1.8995E-09, 3.6437E-09, -7.392E-08, -274446304.58050883, -6.6006249999999945E-10
DataValue, 20, -1, 5.3809999999999995E-09, -1.6098E-09, 6E-08, 621195179.525407, 1.6620624999999987E-09
DataValue, 19.2, -1, 1.4842E-09, 9.844E-10, -1.3568E-07, -1015847216.5786265, -2.8024375000000038E-09
DataValue, 18.400000000000002, -1, -1.7955E-09, 2.8741E-09, -1.1132E-07, -347935005.74092764, -1.564875000000002E-09
DataValue, 17.6, -1, 1.9367E-09, 3.4882E-09, 3.7439999999999996E-08, -286680809.58660626, 9.1187499999999909E-10
DataValue, 16.8, -1, 5.4205999999999993E-09, 1.4151E-09, 1.4834E-07, -706663840.01130664, -5.7437499999999989E-11
DataValue, 16, -1, 2.4871E-09, 3.5801E-09, 2.15E-08, -279321806.65344542, 1.2675000000000002E-09
DataValue, 15.200000000000001, -1, 5.2552E-09, -6.129E-10, 2.2138E-07, 1631587534.6712351, 3.811687500000001E-09
DataValue, 14.4, -1, 1.0443E-09, -2.5186E-09, 8.806E-08, 397045977.92424363, 7.6812499999999909E-11
DataValue, 13.6, -1, -2.7328E-09, -7.358E-10, 5.058E-08, 1359064963.3052461, -8.5900000000000014E-10
DataValue, 12.8, -1, -4.0662E-09, -1.1442E-09, 8.574E-08, 873973081.62908578, -1.6937499999999964E-11
DataValue, 12, -1, -2.7228E-09, -7.087E-10, 4.6379999999999996E-08, 1411034288.1332016, 7.5562499999999926E-11
DataValue, 11.200000000000001, -1, -4.1574E-09, -1.2651E-09, 8.6959999999999993E-08, 790451347.71954787, -6.1500000000000072E-11
DataValue, 10.4, -1, -2.4016E-09, -6.103E-10, 3.116E-08, 1638538423.7260366, -1.0781249999999989E-10
DataValue, 9.6, -1, -3.5739E-09, -1.0926E-09, 9.082E-08, 915248032.21673083, 5.4937500000000018E-10
DataValue, 8.8, -1, -4.5989E-09, -1.4893E-09, 1.3128E-07, 671456388.90754044, -2.3955625000000003E-09
DataValue, 8, -1, 4.2997999999999996E-09, 2.7403E-09, -4.63E-08, -364923548.51658577, -3.1346249999999988E-09
DataValue, 7.2, -1, -2.2094E-09, 3.5261E-09, -6.302E-08, -283599444.14508945, 3.2130000000000008E-09
DataValue, 6.4, -1, 1.4111E-09, -2.4005E-09, 8.66E-08, 416579879.191835, 2.6651875000000004E-09
DataValue, 5.6000000000000005, -1, -2.1474E-09, -7.382E-10, 5.754E-08, 1354646437.27987, -2.5883749999999993E-09
DataValue, 4.8, -1, 5.9247999999999992E-09, 1.7409E-09, 5.256E-08, -574415532.19599056, 1.7274999999999995E-09
DataValue, 4, -1, 8.11E-11, -3.5022E-09, -4.276E-08, 285534806.69293588, 1.8031250000000002E-09
DataValue, 3.2, -1, -3.0111E-09, -1.1441E-09, 8.8779999999999992E-08, 874049471.2000699, -1.326250000000001E-10
DataValue, 2.4, -1, 5.037E-10, -3.29E-09, -4.9E-08, 303951367.781155, 2.076875E-10
DataValue, 1.6, -1, 2.7657E-09, -1.4764E-09, 1.1322E-07, 677323218.639935, 1.1343749999999991E-10
DataValue, 0.8, -1, 4.0736E-09, -3.4715E-09, 5.602E-08, 288059916.46262425, -1.0399999999999998E-10
DataValue, 0, -1, 1.3208E-09, -1.31E-09, 1.0724E-07, 763358778.62595415, -1.773875E-09
DataValue, -0.8, -1, -1.5793E-09, -6.333E-10, 3.802E-08, 1579030475.2881732, -1.8451875000000002E-09
DataValue, -1.6, -1, 6.1305999999999995E-09, 1.6423E-09, 5.216E-08, -608902149.42458749, 1.7947500000000002E-09
DataValue, -2.4, -1, 3.958E-10, -3.5049E-09, -2.646E-08, 285314844.93138176, -6.6950000000000012E-10
DataValue, -3.2, -1, 1.0875999999999998E-09, 2.7135E-09, 4.566E-08, -368527731.7118113, -1.0750000000000196E-11
DataValue, -4, -1, -2.0671E-09, -3.4877E-09, -2.6399999999999998E-08, 286721908.42102247, -2.4131249999999963E-10
DataValue, -4.8, -1, 6.4567E-09, 3.0995999999999995E-09, -6.702E-08, -322622273.84178609, -2.8994999999999993E-09
DataValue, -5.6000000000000005, -1, 3.6363999999999996E-09, 1.1515E-09, 1.4905999999999999E-07, -868432479.37472856, -1.4700000000000032E-10
DataValue, -6.4, -1, 4.3438E-09, 3.3348E-09, 4.11E-08, -299868058.05445606, 1.6830000000000005E-09
DataValue, -7.2, -1, 5.2336E-09, -1.5413E-09, -5.616E-08, 648802958.54149091, 2.428750000000001E-10
DataValue, -8, -1, 4.6689999999999995E-09, 2.9462E-09, 5.18E-08, -339420270.17853504, -2.5547499999999989E-09
DataValue, -8.8, -1, 2.2341999999999996E-09, 2.5463E-09, -1.4426E-07, -392726701.4884342, 9.9031250000000024E-10
DataValue, -9.6, -1, 3.4971999999999995E-09, 1.3617E-09, 1.44E-07, -734376147.46273041, -2.9006249999999984E-10
DataValue, -10.4, -1, 5.6925E-09, 3.0104E-09, 4.438E-08, -332181769.86446983, -1.135312499999999E-09
DataValue, -11.200000000000001, -1, -2.986E-10, 3.1782E-09, 3.55E-08, -314643508.90441132, -3.7056250000000029E-10
DataValue, -12, -1, -7.622E-10, 3.6033E-09, -6.704E-08, -277523381.34487832, 3.5329375000000004E-09
DataValue, -12.8, -1, 2.4215E-09, -2.4745E-09, 8.9819999999999993E-08, 404122044.857547, 4.3636875000000015E-09
DataValue, -13.6, -1, 1.1829E-09, -3.3786E-09, -5.006E-08, 295980583.673711, 4.833125E-10
DataValue, -14.4, -1, 3.9602E-09, -3.2478E-09, -4.954E-08, 307900732.80374408, -3.3566249999999974E-09
DataValue, -15.200000000000001, -1, 2.5219999999999998E-09, 1.992E-09, 4.93E-08, -502008032.128514, 1.5137500000000019E-10
DataValue, -16, -1, 1.1632E-09, -3.49E-09, -2.636E-08, 286532951.28939825, 3.2775000000000011E-09
DataValue, -16.8, -1, 6.861E-09, -3.252E-09, -4.174E-08, 307503075.03075033, -1.2250000000000127E-11
DataValue, -17.6, -1, 7.3212E-09, -3.4704E-09, 5.806E-08, 288151221.76118028, -1.4680624999999987E-09
DataValue, -18.400000000000002, -1, 2.4445999999999996E-09, -9.031E-10, -8.11E-08, 1107297087.8086591, -4.0646875000000049E-09
DataValue, -19.2, -1, 3.5323999999999995E-09, 3.0331E-09, 2.0354E-07, -329695690.87732023, 1.5397500000000021E-09
DataValue, -20, -1, 3.9887999999999993E-09, -3.3667E-09, 2.2338E-07, 297026762.11126626, 2.8703749999999973E-09
DataValue, -20.8, -1, 5.6129999999999995E-09, -1.5595E-09, -5.668E-08, 641231163.8345623, -3.8539374999999968E-09
DataValue, -21.6, -1, 5.2029999999999995E-09, 2.7996E-09, 5.066E-08, -357193884.84069151, 1.2086874999999987E-09
DataValue, -22.400000000000002, -1, -1.7063E-09, -3.4934E-09, -4.728E-08, 286254079.12062746, 2.4539375000000037E-09
DataValue, -23.2, -1, -2.2975E-09, -1.1267E-09, 8.892E-08, 887547705.68918073, -3.5330625000000047E-09
DataValue, -24, -1, 6.4401999999999993E-09, 2.1595E-09, -1.6572E-07, -463070155.128502, -2.496749999999998E-09
DataValue, -24.8, -1, 5.2924E-09, 2.8681E-09, 5.138E-08, -348662877.8633939, -1.76625E-10
DataValue, -25.6, -1, 2.4943999999999996E-09, 2.4421E-09, -1.4032E-07, -409483641.12853688, 6.6062500000000037E-11
DataValue, -26.400000000000002, -1, 2.932E-09, 2.7624E-09, 5.01E-08, -362004054.44540977, -3.6918750000000054E-10
DataValue, -27.2, -1, 1.724E-10, 3.0328E-09, 4.43E-08, -329728303.87760484, -5.5175000000000091E-10
DataValue, -28, -1, 4.124E-10, 3.6452E-09, -6.272E-08, -274333369.91111594, 2.8443124999999976E-09
DataValue, -28.8, -1, 5.9601999999999993E-09, -1.5181E-09, -5.572E-08, 658718134.510243, 1.9812500000000116E-11
DataValue, -29.6, -1, 7.3713E-09, 3.6135E-09, -5.492E-08, -276740002.7674, -1.8499999999999985E-10
DataValue, -30.400000000000002, -1, 5.5782E-09, -1.2221E-09, -4.8679999999999997E-08, 818263644.54627287, 1.1205000000000015E-09
DataValue, -31.2, -1, 2.479E-09, 1.8207E-09, 4.28E-08, -549239303.56456316, -2.9810625000000041E-09
DataValue, -32, -1, -1.299E-10, 3.5476E-09, -6.164E-08, -281880708.08433872, 3.1358125000000043E-09
DataValue, -32.8, -1, 6.7138E-09, -3.1966E-09, -5.754E-08, 312832384.408434, 2.9910624999999973E-09
DataValue, -33.6, -1, 2.7521999999999997E-09, -1.2381E-09, -4.77E-08, 807689201.19538, -8.7343749999999924E-10
DataValue, -34.4, -1, 3.7936E-09, -1.7991E-09, -5.426E-08, 555833472.29170144, 8.5724999999999929E-10
DataValue, -35.2, -1, 2.9813999999999997E-09, -2.6097E-09, -5.656E-08, 383185806.7977162, -2.9364374999999974E-09
DataValue, -36, -1, 5.1314E-09, 2.8992E-09, 5.174E-08, -344922737.30684328, -3.128687499999997E-09
DataValue, -36.800000000000004, -1, 2.6847999999999997E-09, 2.3962E-09, -1.6315999999999999E-07, -417327435.10558385, -3.1375000000000034E-11
DataValue, -37.6, -1, 5.4523999999999991E-09, 2.9494E-09, 5.202E-08, -339052010.57842273, 5.250000000000078E-12
DataValue, -38.4, -1, 2.9217999999999996E-09, 2.3878E-09, -1.4162E-07, -418795544.01541167, 2.7874999999999994E-11
DataValue, -39.2, -1, 5.6067999999999993E-09, 2.9048E-09, 5.166E-08, -344257780.22583306, -1.360625E-10
DataValue, -40, -1, 2.9606E-09, 2.6055E-09, 4.508E-08, -383803492.61178273, 7.7291250000000275E-09
DataValue, -40, -1, -3.1734E-09, -3.2785E-09, -3.798E-08, 305017538.50846428, -5.1901250000000188E-09
DataValue, -39.2, -1, 2.9324E-09, -1.5466E-09, -5.5279999999999996E-08, 646579593.948015, 3.8165624999999966E-09
DataValue, -38.4, -1, 2.7814E-09, 2.828E-09, 5.302E-08, -353606789.25035357, -1.253312499999999E-09
DataValue, -37.6, -1, -1.1507E-09, -3.5519E-09, -1.937E-07, 281539457.75500435, 3.9618750000000117E-10
DataValue, -36.800000000000004, -1, 8.447E-10, 3.4619E-09, 3.13E-08, -288858719.2004391, 7.5662499999999934E-10
DataValue, -36, -1, 1.0949999999999998E-09, -2.3413E-09, 1.3588E-07, 427113142.27138764, -3.9047499999999965E-09
DataValue, -35.2, -1, 3.6E-11, -2.7857E-09, 1.1156E-07, 358976199.87794811, -6.8262499999999939E-10
DataValue, -34.4, -1, -1.0456E-09, -3.4335E-09, -4.9799999999999996E-08, 291247997.670016, -4.8999999999999965E-10
DataValue, -33.6, -1, 5.6347E-09, -3.5697E-09, -2.103E-07, 280135585.62344176, 4.2144374999999961E-09
DataValue, -32.8, -1, 1.5131E-09, 3.3096E-09, 4.416E-08, -302151317.37974381, 4.4258124999999959E-09
DataValue, -32, -1, -3.8595E-09, 3.5116E-09, -6.44E-08, -284770474.99715227, -3.4642500000000045E-09
DataValue, -31.2, -1, 4.9243E-09, -2.2332E-09, -5.084E-08, 447787927.6374709, -4.4295625000000059E-09
DataValue, -30.400000000000002, -1, 3.6621E-09, -3.5757E-09, -3.972E-08, 279665520.0380345, -4.8231250000000045E-10
DataValue, -29.6, -1, 2.3589E-09, -3.0049E-09, -4.812E-08, 332789776.69805986, 7.625000000000006E-12
DataValue, -28.8, -1, 3.2175E-09, -3.5635E-09, -2.536E-08, 280622983.02230954, -3.598749999999997E-10
DataValue, -28, -1, 3.1199E-09, -3.5807E-09, -2.43E-08, 279275002.09456253, -1.1875000000001048E-12
DataValue, -27.2, -1, 2.9271E-09, -3.5654E-09, -2.382E-08, 280473439.16531104, 2.2000000000000057E-11
DataValue, -26.400000000000002, -1, 2.6709E-09, -3.5455E-09, -2.406E-08, 282047666.05556339, 1.0000000000000497E-12
DataValue, -25.6, -1, 2.9407E-09, -3.5638E-09, -2.402E-08, 280599360.23345864, -1.6437500000000114E-11
DataValue, -24.8, -1, 2.8322E-09, -3.5718E-09, -2.47E-08, 279970883.02816504, 4.6124999999999892E-11
DataValue, -24, -1, 1.0615E-09, -3.49E-09, -3.472E-08, 286532951.28939825, 1.4156249999999987E-10
DataValue, -23.2, -1, 2.551E-10, -3.3453E-09, -4.7739999999999996E-08, 298926852.59916896, 7.5375000000000115E-10
DataValue, -22.400000000000002, -1, 4.3316E-09, -2.284E-09, -5.44E-08, 437828371.27845883, -1.4512500000000024E-10
DataValue, -21.6, -1, 3.1818E-09, -3.5775E-09, -2.0864E-07, 279524807.82669461, 3.6143124999999968E-09
DataValue, -20.8, -1, -3.2032E-09, 3.4989E-09, -6.842E-08, -285804109.86309981, 2.6981249999999979E-10
DataValue, -20, -1, -1.3385E-09, -3.1458E-09, 4.552E-08, 317884163.01099879, 5.3125000000000737E-12
