
SetupTitle, Id-Vgs
PrimitiveTest, I/V Sweep
TestParameter, Context.MainFrame, B1500A
TestParameter, Channel.UnitType, SMU, SMU, SMU
TestParameter, Channel.Unit, SMU1:MP, SMU4:MP, SMU5:MP
TestParameter, Channel.IName, Is, Id, Ig
TestParameter, Channel.VName, Vs, Vds, Vgs
TestParameter, Channel.Mode, V, V, V
TestParameter, Channel.Func, CONST, VAR2, VAR1
TestParameter, Channel.Index, 
TestParameter, Channel.Time, 
TestParameter, Measurement.Port.Unit, SMU1:MP, SMU4:MP, SMU5:MP
TestParameter, Measurement.Port.SeriesResistor, NONE, NONE, NONE
TestParameter, Measurement.Port.Filter, ON, ON, ON
TestParameter, Measurement.Port.OutputVoltageComparison, 0, 0, 0
TestParameter, Measurement.Primary.Locus, Double
TestParameter, Measurement.Primary.Scale, LINEAR
TestParameter, Measurement.Primary.Start, 40
TestParameter, Measurement.Primary.Stop, -40
TestParameter, Measurement.Primary.Step, -0.8
TestParameter, Measurement.Primary.Compliance, 1E-06
TestParameter, Measurement.Primary.PowerCompliance, 0
TestParameter, Measurement.Aborting.Condition, CONTINUE AT ANY
TestParameter, Measurement.PostOutput.Value, START
TestParameter, Measurement.PostOutput.Retention, OFF
TestParameter, Measurement.Secondary.Start, -1
TestParameter, Measurement.Secondary.Count, 1
TestParameter, Measurement.Secondary.Step, -0.5
TestParameter, Measurement.Secondary.Compliance, 0.0005
TestParameter, Measurement.Secondary.PowerCompliance, 0
TestParameter, Measurement.Bias.Source, 0, -1, 40
TestParameter, Measurement.Bias.Compliance, 0.1, 0.0005, 1E-06
TestParameter, Measurement.Monitor.Unit, SMU1:MP, SMU4:MP, SMU5:MP
TestParameter, Measurement.Monitor.Adc, HR ADC, HR ADC, HR ADC
TestParameter, Measurement.Monitor.Measurement, Compliance Side, Compliance Side, Compliance Side
TestParameter, Measurement.Monitor.RangingMode, LIMITED, LIMITED, LIMITED
TestParameter, Measurement.Monitor.RangeBoundary, 1nA, 1nA, 1nA
TestParameter, Measurement.Monitor.RangeRating, BY FULL RANGE, BY FULL RANGE, BY FULL RANGE
TestParameter, Measurement.Monitor.RangeRatingCoeff, 50, 50, 50
TestParameter, Measurement.Timing.Hold, 0
TestParameter, Measurement.Timing.Delay, 0
TestParameter, Measurement.Adc.HighSpeed.Mode, AUTO
TestParameter, Measurement.Adc.HighSpeed.Coeff, 1
TestParameter, Measurement.Adc.HighResolution.AutoZero, OFF
TestParameter, Measurement.Adc.HighResolution.Mode, AUTO
TestParameter, Measurement.Adc.HighResolution.Coeff, 4
TestParameter, Measurement.WaitTime.Source.Coeff, 1
TestParameter, Measurement.WaitTime.Source.Offset, 0
TestParameter, Measurement.WaitTime.Monitor.Coeff, 1
TestParameter, Measurement.WaitTime.Monitor.Offset, 0
TestParameter, Function.User.Name, R, gm
TestParameter, Function.User.Unit, Ohms, S
TestParameter, Function.User.Definition, Vds/Id, delta(Id)/delta(Vgs)
TestParameter, Output.Graph.Enabled, true
TestParameter, Output.Graph.XAxis.Data, Vgs
TestParameter, Output.Graph.XAxis.Scale, Linear
TestParameter, Output.Graph.XAxis.Left, -50
TestParameter, Output.Graph.XAxis.Right, 50
TestParameter, Output.Graph.YAxis.Data, Id, Is, Ig
TestParameter, Output.Graph.YAxis.Scale, Log, Log, Log
TestParameter, Output.Graph.YAxis.Bottom, -1E-13, 1E-13, 1E-11
TestParameter, Output.Graph.YAxis.Top, -2E-05, 2E-05, 1E-07
TestParameter, Output.Graph.YAxis.Group, , , 
TestParameter, Output.List.Data, Vgs, Vds, Id, Is, Ig, R, gm
TestParameter, AutoAnalysis.Interpolation, false
TestParameter, AutoAnalysis.Line1.Enabled, false
TestParameter, AutoAnalysis.Line1.Type, 1
TestParameter, AutoAnalysis.Line1.Fix, True
TestParameter, AutoAnalysis.Line1.YAxis, 0
TestParameter, AutoAnalysis.Line1.Point1.Type, 0
TestParameter, AutoAnalysis.Line1.Point1.XY.X, 
TestParameter, AutoAnalysis.Line1.Point1.XY.Y, 
TestParameter, AutoAnalysis.Line1.Point1.Data.Var, 
TestParameter, AutoAnalysis.Line1.Point1.Data.Condition, 
TestParameter, AutoAnalysis.Line1.Point1.Data.Start, false
TestParameter, AutoAnalysis.Line1.Point1.Data.StartVar, 
TestParameter, AutoAnalysis.Line1.Point1.Data.StartCondition, 
TestParameter, AutoAnalysis.Line1.Point2.Type, 0
TestParameter, AutoAnalysis.Line1.Point2.XY.X, 
TestParameter, AutoAnalysis.Line1.Point2.XY.Y, 
TestParameter, AutoAnalysis.Line1.Point2.Data.Var, 
TestParameter, AutoAnalysis.Line1.Point2.Data.Condition, 
TestParameter, AutoAnalysis.Line1.Point2.Data.Start, false
TestParameter, AutoAnalysis.Line1.Point2.Data.StartVar, 
TestParameter, AutoAnalysis.Line1.Point2.Data.StartCondition, 
TestParameter, AutoAnalysis.Line1.GradientExpr, 0
TestParameter, AutoAnalysis.Line2.Enabled, false
TestParameter, AutoAnalysis.Line2.Type, 1
TestParameter, AutoAnalysis.Line2.Fix, True
TestParameter, AutoAnalysis.Line2.YAxis, 0
TestParameter, AutoAnalysis.Line2.Point1.Type, 0
TestParameter, AutoAnalysis.Line2.Point1.XY.X, 
TestParameter, AutoAnalysis.Line2.Point1.XY.Y, 
TestParameter, AutoAnalysis.Line2.Point1.Data.Var, 
TestParameter, AutoAnalysis.Line2.Point1.Data.Condition, 
TestParameter, AutoAnalysis.Line2.Point1.Data.Start, false
TestParameter, AutoAnalysis.Line2.Point1.Data.StartVar, 
TestParameter, AutoAnalysis.Line2.Point1.Data.StartCondition, 
TestParameter, AutoAnalysis.Line2.Point2.Type, 0
TestParameter, AutoAnalysis.Line2.Point2.XY.X, 
TestParameter, AutoAnalysis.Line2.Point2.XY.Y, 
TestParameter, AutoAnalysis.Line2.Point2.Data.Var, 
TestParameter, AutoAnalysis.Line2.Point2.Data.Condition, 
TestParameter, AutoAnalysis.Line2.Point2.Data.Start, false
TestParameter, AutoAnalysis.Line2.Point2.Data.StartVar, 
TestParameter, AutoAnalysis.Line2.Point2.Data.StartCondition, 
TestParameter, AutoAnalysis.Line2.GradientExpr, 0
TestParameter, AutoAnalysis.Marker.Enabled, false
TestParameter, AutoAnalysis.Marker.Data.Var, 
TestParameter, AutoAnalysis.Marker.Data.Condition, 
TestParameter, AutoAnalysis.Marker.Data.Start, false
TestParameter, AutoAnalysis.Marker.Data.StartVar, 
TestParameter, AutoAnalysis.Marker.Data.StartCondition, 
MetaData, TestRecord.EntryPoint, true
MetaData, TestRecord.RecordTime, 02/20/2018 02:18:22
MetaData, TestRecord.TestTarget, 180207S2_d3_r3_lch50
MetaData, TestRecord.IterationIndex, 47
MetaData, TestRecord.Preservation, true
MetaData, TestRecord.Flag, ?
MetaData, TestRecord.Remarks, 
MetaData, TestRecord.LinkKey, 1b3162c7-4671-4a86-802b-6d12eb1605d1
Dimension1, 202, 202, 202, 202, 202, 202, 202
Dimension2, 1, 1, 1, 1, 1, 1, 1
DataName, Vgs, Vds, Is, Id, Ig, R, gm
DataValue, 40, -1, 1.1337E-09, 3.2768E-09, -5.1999999999999996E-08, -305175781.25, 5.62237500000002E-09
DataValue, 39.2, -1, 9.11E-11, -1.2211E-09, 1.5852E-07, 818933748.25976574, 2.420124999999998E-09
DataValue, 38.4, -1, 1.4783E-09, -5.954E-10, -2.1632E-07, 1679543164.2593215, -2.5989374999999981E-09
DataValue, 37.6, -1, 2.2518E-09, 2.9372E-09, -2.5315999999999997E-07, -340460302.32874846, 8.74062500000003E-10
DataValue, 36.800000000000004, -1, -5.359E-10, -1.9939E-09, 2.5735999999999997E-07, 501529665.47971314, 6.0299999999999957E-10
DataValue, 36, -1, 5.187E-10, 1.9724E-09, -2.5868E-07, -506996552.42344356, 6.8750000000000344E-12
DataValue, 35.2, -1, -5.221E-10, -2.0049E-09, 2.3454E-07, 498777993.91490847, -4.1374999999999986E-11
DataValue, 34.4, -1, 5.21E-10, 2.0386E-09, -2.8862E-07, -490532718.5323261, 6.8062499999999875E-11
DataValue, 33.6, -1, -4.625E-10, -2.1138E-09, 2.5497999999999997E-07, 473081653.89346206, 7.37499999999993E-12
DataValue, 32.8, -1, 5.195E-10, 2.0268E-09, -2.8625999999999997E-07, -493388592.85573316, -1.0993749999999976E-10
DataValue, 32, -1, -5.486E-10, -1.9379E-09, 2.2153999999999998E-07, 516022498.5809381, 8.5000000000000081E-11
DataValue, 31.2, -1, 5.799E-10, 1.8908E-09, -2.4278E-07, -528876665.96149772, -3.7500000000011553E-13
DataValue, 30.400000000000002, -1, -5.536E-10, -1.9373E-09, 2.1422E-07, 516182315.59386778, 3.1694375000000043E-09
DataValue, 29.6, -1, 1.1514E-09, -3.1803E-09, 5.1999999999999996E-08, 314435745.05549794, -2.6438749999999973E-09
DataValue, 28.8, -1, 3.674E-10, 2.2929E-09, -2.6618E-07, -436128919.70866591, -5.8174999999999936E-10
DataValue, 28, -1, -3.292E-10, -2.2495E-09, 2.8849999999999997E-07, 444543231.8292954, 2.6749999999999911E-11
DataValue, 27.2, -1, 4.31E-10, 2.2501E-09, -2.4588E-07, -444424692.23590064, -2.6718125000000034E-09
DataValue, 26.400000000000002, -1, -1.2102E-09, 2.0254E-09, 8.616E-08, -493729633.65261179, 2.1103750000000029E-09
DataValue, 25.6, -1, -4.9563E-09, -1.1265E-09, 1.5883999999999999E-07, 887705281.846427, 1.6143124999999987E-09
DataValue, 24.8, -1, 1.2648E-09, -5.575E-10, -2.2823999999999998E-07, 1793721973.0941703, -2.5318124999999977E-09
DataValue, 24, -1, 2.3619E-09, 2.9244E-09, -2.3032E-07, -341950485.56968951, 7.9774999999999934E-10
DataValue, 23.2, -1, -5.605E-10, -1.8339E-09, 2.1704E-07, 545286002.50831556, 6.0181250000000081E-10
DataValue, 22.400000000000002, -1, 5.484E-10, 1.9615E-09, -2.5945999999999997E-07, -509813917.91995925, 1.1081250000000001E-10
DataValue, 21.6, -1, -5.001E-10, -2.0112E-09, 2.5564E-07, 497215592.68098652, 3.5937499999999876E-11
DataValue, 20.8, -1, 5.58E-10, 1.904E-09, -2.4006E-07, -525210084.03361344, -1.0843749999999983E-10
DataValue, 20, -1, -5.755E-10, -1.8377E-09, 2.1766E-07, 544158458.94324434, 1.0874999999999966E-11
DataValue, 19.2, -1, 5.426E-10, 1.8866E-09, -2.1747999999999999E-07, -530054065.51468247, -2.7941250000000035E-09
DataValue, 18.400000000000002, -1, -1.1685E-09, 2.6329E-09, 2.4606E-07, -379809335.71347183, 3.1653125000000046E-09
DataValue, 17.6, -1, -1.2404E-09, -3.1779E-09, 4.95E-08, 314673211.86947358, 1.3499999999999992E-10
DataValue, 16.8, -1, 3.535E-10, 2.4168999999999998E-09, -1.441E-07, -413753154.8678059, 6.49999999999992E-12
DataValue, 16, -1, 3.0811999999999997E-09, -3.1883E-09, -1.5812E-07, 313646771.0064925, 3.5412500000000004E-09
DataValue, 15.200000000000001, -1, -1.1062E-09, -3.2491E-09, 5.1859999999999996E-08, 307777538.39524794, -3.5960000000000004E-09
DataValue, 14.4, -1, 1.803E-10, 2.5653E-09, -1.3774E-07, -389817955.01500803, -4.0046249999999964E-09
DataValue, 13.6, -1, -1.1464E-09, 3.1583E-09, 2.196E-07, -316626032.99243259, 3.4320625000000006E-09
DataValue, 12.8, -1, -2.4004E-09, -2.926E-09, 1.5802E-07, 341763499.6582365, 9.6731250000000022E-10
DataValue, 12, -1, -4.729E-10, 1.6106E-09, -2.0706E-07, -620886626.10207379, -3.504625000000001E-09
DataValue, 11.200000000000001, -1, -1.161E-09, 2.6814E-09, 2.497E-07, -372939509.21160591, 2.9838125000000006E-09
DataValue, 10.4, -1, -1.2955E-09, -3.1635E-09, 4.734E-08, 316105579.263474, 3.6758124999999966E-09
DataValue, 9.6, -1, 1.1695E-09, -3.1999E-09, 5.254E-08, 312509765.93018532, -3.5398750000000009E-09
DataValue, 8.8, -1, 2.86E-10, 2.5003E-09, -1.3472E-07, -399952005.75930887, -3.9206875000000005E-09
DataValue, 8, -1, -1.1496E-09, 3.0732E-09, 2.543E-07, -325393726.4089548, 3.4372499999999991E-09
DataValue, 7.2, -1, -2.0172E-09, -2.9993E-09, 6.112E-08, 333411129.26349479, -2.8312499999999902E-11
DataValue, 6.4, -1, -9.698E-10, 3.1185E-09, -6.358E-08, -320666987.333654, 4.656249999999982E-11
DataValue, 5.6000000000000005, -1, 1.0411E-09, -3.0738E-09, 5.01E-08, 325330210.16331577, -6.037500000000014E-11
DataValue, 4.8, -1, -1.191E-09, 3.2151E-09, -4.448E-08, -311032316.25765914, 9.4375000000000482E-12
DataValue, 4, -1, 1.3234E-09, -3.0889E-09, 4.754E-08, 323739842.66243649, -5.4999999999998792E-12
DataValue, 3.2, -1, -1.4052E-09, 3.2239E-09, -4.424E-08, -310183318.34113961, -3.5333124999999996E-09
DataValue, 2.4, -1, -1.1731E-09, 2.5644E-09, 2.3171999999999999E-07, -389954765.2472313, 4.011125E-09
DataValue, 1.6, -1, -1.2124E-09, -3.1939E-09, 4.894E-08, 313096840.85287583, 2.3068749999999996E-10
DataValue, 0.8, -1, 4.197E-10, 2.1953E-09, -2.9045999999999997E-07, -455518607.93513411, -6.7862499999999981E-10
DataValue, 0, -1, -3.736E-10, -2.1081E-09, 2.6618E-07, 474360798.82358515, -6.9999999999999986E-10
DataValue, -0.8, -1, -3.4207999999999996E-09, 3.3153E-09, -4.798E-08, -301631828.19051069, -3.3651249999999996E-09
DataValue, -1.6, -1, -3.3723E-09, 3.2761E-09, 1.3702E-07, -305240987.75983638, 3.64575E-09
DataValue, -2.4, -1, -3.9723E-09, -2.5179E-09, 1.322E-07, 397156360.4591127, 3.9738749999999996E-09
DataValue, -3.2, -1, 1.1451E-09, -3.0821E-09, -1.54E-07, 324454105.96671104, -3.2415624999999997E-09
DataValue, -4, -1, 3.5929E-09, 2.6686E-09, -1.6852E-07, -374728321.96657425, -3.7763125000000006E-09
DataValue, -4.8, -1, -1.1415E-09, 2.96E-09, 2.7E-07, -337837837.83783782, 3.5178124999999986E-09
DataValue, -5.6000000000000005, -1, -2.0637E-09, -2.9599E-09, 9.568E-08, 337849251.66390753, -8.1062500000000024E-11
DataValue, -6.4, -1, -8.067E-10, 3.0897E-09, -5.222E-08, -323656018.38366181, 4.5437499999999992E-11
DataValue, -7.2, -1, 1.0789E-09, -3.0326E-09, 6.3E-08, 329750049.46250743, -4.4874999999999819E-11
DataValue, -8, -1, -9.952E-10, 3.1615E-09, -4.4699999999999997E-08, -316305551.1624229, 2.7562499999999915E-11
DataValue, -8.8, -1, 1.1674E-09, -3.0767E-09, 5.736E-08, 325023564.20840514, -4.6875000000001462E-12
DataValue, -9.6, -1, -1.1568E-09, 3.169E-09, -4.46E-08, -315556958.03092456, 4.3875000000000029E-11
DataValue, -10.4, -1, 1.3824E-09, -3.1469E-09, 4.6619999999999997E-08, 317773046.4901967, 5.7049999999999953E-10
DataValue, -11.200000000000001, -1, -1.8107E-09, 2.2562E-09, -2.3112E-07, -443223118.51786184, -3.0566250000000009E-09
DataValue, -12, -1, -1.1917E-09, 1.7437E-09, 8.658E-08, -573493146.75689626, 2.2181875000000006E-09
DataValue, -12.8, -1, -5.3166E-09, -1.2929E-09, 1.4835999999999999E-07, 773455023.59037828, -9.8737500000000022E-10
DataValue, -13.6, -1, -2.9733999999999997E-09, 3.3235E-09, -4.68E-08, -300887618.47449976, -2.9420625000000009E-09
DataValue, -14.4, -1, -2.2055E-09, 3.4144E-09, 2.864E-08, -292877225.8669166, 4.0984999999999961E-09
DataValue, -15.200000000000001, -1, 8.348E-10, -3.2341E-09, -1.3798E-07, 309205033.85795122, 5.0706250000000028E-10
DataValue, -16, -1, 4.0684E-09, 2.6031E-09, -1.4088E-07, -384157350.85090858, -4.0812500000000006E-09
DataValue, -16.8, -1, -7.585E-10, 3.2959E-09, -5.1579999999999996E-08, -303407263.56988984, 2.330062499999998E-09
DataValue, -17.6, -1, -3.62E-11, -1.125E-09, 1.5488E-07, 888888888.888889, 4.1043124999999961E-09
DataValue, -18.400000000000002, -1, 1.6808E-09, -3.271E-09, -1.8608E-07, 305716906.1449098, -2.5061250000000033E-09
DataValue, -19.2, -1, 2.7488E-09, 2.8848E-09, -2.1536E-07, -346644481.41985583, -3.7855000000000052E-09
DataValue, -20, -1, -1.1598E-09, 2.7858E-09, 2.8932E-07, -358963313.94931436, 3.6984374999999966E-09
DataValue, -20.8, -1, -1.8608E-09, -3.0327E-09, 6.158E-08, 329739176.31153756, 6.6587499999999942E-10
DataValue, -21.6, -1, -8.093E-10, 1.7204E-09, -2.011E-07, -581260172.053011, -3.627312499999997E-09
DataValue, -22.400000000000002, -1, -1.1544E-09, 2.771E-09, 2.8522E-07, -360880548.53843379, 2.9808750000000039E-09
DataValue, -23.2, -1, -1.6229E-09, -3.049E-09, 5.916E-08, 327976385.70022959, 6.5881250000000092E-10
DataValue, -24, -1, -7.702E-10, 1.7169E-09, -1.9234E-07, -582445104.54889631, -3.6902499999999964E-09
DataValue, -24.8, -1, -1.1495E-09, 2.8554E-09, 2.8116E-07, -350213630.31449187, 2.9397499999999974E-09
DataValue, -25.6, -1, -1.9344E-09, -2.9867E-09, 6.38E-08, 334817691.76683295, -1.9987499999999987E-10
DataValue, -26.400000000000002, -1, -9.458E-10, 3.1752E-09, -5.396E-08, -314940791.13126731, 4.8812500000000045E-11
DataValue, -27.2, -1, 1.1525E-09, -3.0648E-09, 4.3479999999999996E-08, 326285565.12659878, -5.5812500000000137E-11
DataValue, -28, -1, -1.4194E-09, 3.2645E-09, -4.75E-08, -306325624.13845921, -3.2594999999999973E-09
DataValue, -28.8, -1, -1.194E-09, 2.1504E-09, 8.75E-08, -465029761.90476191, 2.7708749999999974E-09
DataValue, -29.6, -1, -5.0017E-09, -1.1689E-09, 1.6008E-07, 855505175.80631363, 1.6879374999999984E-09
DataValue, -30.400000000000002, -1, 1.3012E-09, -5.503E-10, -2.5464E-07, 1817190623.2963839, -2.6198125000000036E-09
DataValue, -31.2, -1, 2.1691E-09, 3.0228E-09, -6.652E-08, -330819108.11168456, 1.526250000000002E-09
DataValue, -32, -1, 8.539E-10, -2.9923E-09, 8.662E-08, 334191090.46552819, -5.0500000000000045E-11
DataValue, -32.8, -1, -8.101E-10, 3.1036E-09, -5.3219999999999996E-08, -322206469.90591574, 4.0874999999999833E-11
DataValue, -33.6, -1, 1.1017E-09, -3.0577E-09, 5.446E-08, 327043202.407038, -7.5937499999999964E-11
DataValue, -34.4, -1, -1.1841E-09, 3.2251E-09, -4.3E-08, -310067904.87116677, 7.21875000000001E-11
DataValue, -35.2, -1, 1.5318E-09, -3.1732E-09, 4.694E-08, 315139291.56687254, 6.4262499999999932E-10
DataValue, -36, -1, 4.206E-10, 2.1969E-09, -2.8198E-07, -455186854.20365059, -3.1788749999999973E-09
DataValue, -36.800000000000004, -1, -1.2047E-09, 1.913E-09, 8.38E-08, -522739153.16257191, 2.1231249999999983E-09
DataValue, -37.6, -1, -5.0851E-09, -1.2001E-09, 1.6177999999999998E-07, 833263894.67544365, 1.5601250000000053E-09
DataValue, -38.4, -1, 1.3687E-09, -5.832E-10, -2.1992E-07, 1714677640.6035664, -2.5885624999999979E-09
DataValue, -39.2, -1, 2.3478E-09, 2.9416E-09, -2.2879999999999998E-07, -339951047.04922491, 7.9624999999999929E-10
DataValue, -40, -1, -5.759E-10, -1.8572E-09, 2.2968E-07, 538444970.92397153, -6.0000000000000517E-11
DataValue, -40, -1, -5.8014E-09, 2.9896E-09, 2.1906E-07, -334492908.7503345, -1.2232500000000044E-09
DataValue, -39.2, -1, -2.6474E-09, -2.8358E-09, 1.716E-07, 352634177.30446434, -9.4062499999999912E-10
DataValue, -38.4, -1, -3.84E-10, 1.4846E-09, -1.5028E-07, -673582109.65916741, 3.5748124999999966E-09
DataValue, -37.6, -1, -1.1474E-09, 2.8839E-09, 2.887E-07, -346752661.32667571, -2.8428125000000103E-09
DataValue, -36.800000000000004, -1, -1.6235E-09, -3.0639E-09, 5.634E-08, 326381409.31492543, 1.9924999999999993E-10
DataValue, -36, -1, -1.1696E-09, 3.2027E-09, -4.606E-08, -312236550.41059107, 9.2499999999999858E-12
DataValue, -35.2, -1, 1.0714E-09, -3.0491E-09, 6.082E-08, 327965629.20205963, -9.1249999999999475E-12
DataValue, -34.4, -1, -1.052E-09, 3.1881E-09, -4.344E-08, -313666447.10015368, -4.6749999999999826E-11
DataValue, -33.6, -1, 1.3379E-09, -3.1239E-09, 4.626E-08, 320112679.66324145, -7.8125000000000635E-12
DataValue, -32.8, -1, -1.1007E-09, 3.1756E-09, -4.506E-08, -314901121.04799092, 1.4249999999999964E-11
DataValue, -32, -1, 1.2559E-09, -3.1011E-09, 4.35E-08, 322466221.66328079, 4.0562500000000086E-11
DataValue, -31.2, -1, -1.3813E-09, 3.2405E-09, -4.524E-08, -308594352.72334516, 5.4906250000000066E-10
DataValue, -30.400000000000002, -1, -3.431E-10, -2.2226E-09, 2.8076E-07, 449923513.0027895, -5.5481250000000087E-10
DataValue, -29.6, -1, 4.055E-10, 2.3528E-09, -1.4848E-07, -425025501.53009182, -5.0812499999999952E-10
DataValue, -28.8, -1, 3.0417999999999996E-09, -3.0356E-09, 4.282E-08, 329424166.5568586, -3.4224999999999972E-09
DataValue, -28, -1, 2.7709E-09, -3.1232E-09, 4.97E-08, 320184426.22950816, 2.6413124999999973E-09
DataValue, -27.2, -1, 8.29E-11, 1.1905E-09, -1.4442E-07, -839983200.33599329, 6.0062500000000148E-11
DataValue, -26.400000000000002, -1, 3.0036E-09, -3.0271E-09, 4.378E-08, 330349179.08229, -2.302750000000003E-09
DataValue, -25.6, -1, 2.4756E-09, -2.4939E-09, 1.4522E-07, 400978387.26492643, 3.9620624999999961E-09
DataValue, -24.8, -1, -3.0113999999999998E-09, 3.3121999999999998E-09, -4.646E-08, -301914135.61982971, 3.6910624999999969E-09
DataValue, -24, -1, -2.6078E-09, 3.4118E-09, -4.934E-08, -293100416.202591, -2.7711249999999973E-09
DataValue, -23.2, -1, -5.5E-11, -1.1216E-09, 1.5878E-07, 891583452.211127, -2.5062500000000034E-09
DataValue, -22.400000000000002, -1, 1.4128E-09, -5.982E-10, -2.053E-07, 1671681711.802073, 2.4307500000000034E-09
DataValue, -21.6, -1, 2.9411E-09, 2.7676E-09, -2.064E-07, -361323890.73565549, 2.1309374999999981E-09
DataValue, -20.8, -1, -1.1695E-09, 2.8113E-09, 2.8932E-07, -355707324.01380146, -3.6260624999999969E-09
DataValue, -20, -1, -1.7760999999999999E-09, -3.0341E-09, 7.42E-08, 329587027.45459938, -3.7079374999999966E-09
DataValue, -19.2, -1, 1.1358E-09, -3.1214E-09, 4.354E-08, 320369065.16306788, 3.9219375000000052E-09
