
SetupTitle, Id-Vgs
PrimitiveTest, I/V Sweep
TestParameter, Context.MainFrame, B1500A
TestParameter, Channel.UnitType, SMU, SMU, SMU
TestParameter, Channel.Unit, SMU1:MP, SMU4:MP, SMU5:MP
TestParameter, Channel.IName, Is, Id, Ig
TestParameter, Channel.VName, Vs, Vds, Vgs
TestParameter, Channel.Mode, V, V, V
TestParameter, Channel.Func, CONST, VAR2, VAR1
TestParameter, Channel.Index, 
TestParameter, Channel.Time, 
TestParameter, Measurement.Port.Unit, SMU1:MP, SMU4:MP, SMU5:MP
TestParameter, Measurement.Port.SeriesResistor, NONE, NONE, NONE
TestParameter, Measurement.Port.Filter, ON, ON, ON
TestParameter, Measurement.Port.OutputVoltageComparison, 0, 0, 0
TestParameter, Measurement.Primary.Locus, Double
TestParameter, Measurement.Primary.Scale, LINEAR
TestParameter, Measurement.Primary.Start, 40
TestParameter, Measurement.Primary.Stop, -40
TestParameter, Measurement.Primary.Step, -0.8
TestParameter, Measurement.Primary.Compliance, 1E-06
TestParameter, Measurement.Primary.PowerCompliance, 0
TestParameter, Measurement.Aborting.Condition, CONTINUE AT ANY
TestParameter, Measurement.PostOutput.Value, START
TestParameter, Measurement.PostOutput.Retention, OFF
TestParameter, Measurement.Secondary.Start, -1
TestParameter, Measurement.Secondary.Count, 1
TestParameter, Measurement.Secondary.Step, -0.5
TestParameter, Measurement.Secondary.Compliance, 0.0005
TestParameter, Measurement.Secondary.PowerCompliance, 0
TestParameter, Measurement.Bias.Source, 0, -1, 40
TestParameter, Measurement.Bias.Compliance, 0.1, 0.0005, 1E-06
TestParameter, Measurement.Monitor.Unit, SMU1:MP, SMU4:MP, SMU5:MP
TestParameter, Measurement.Monitor.Adc, HR ADC, HR ADC, HR ADC
TestParameter, Measurement.Monitor.Measurement, Compliance Side, Compliance Side, Compliance Side
TestParameter, Measurement.Monitor.RangingMode, LIMITED, LIMITED, LIMITED
TestParameter, Measurement.Monitor.RangeBoundary, 1nA, 1nA, 1nA
TestParameter, Measurement.Monitor.RangeRating, BY FULL RANGE, BY FULL RANGE, BY FULL RANGE
TestParameter, Measurement.Monitor.RangeRatingCoeff, 50, 50, 50
TestParameter, Measurement.Timing.Hold, 0
TestParameter, Measurement.Timing.Delay, 0
TestParameter, Measurement.Adc.HighSpeed.Mode, AUTO
TestParameter, Measurement.Adc.HighSpeed.Coeff, 1
TestParameter, Measurement.Adc.HighResolution.AutoZero, OFF
TestParameter, Measurement.Adc.HighResolution.Mode, AUTO
TestParameter, Measurement.Adc.HighResolution.Coeff, 4
TestParameter, Measurement.WaitTime.Source.Coeff, 1
TestParameter, Measurement.WaitTime.Source.Offset, 0
TestParameter, Measurement.WaitTime.Monitor.Coeff, 1
TestParameter, Measurement.WaitTime.Monitor.Offset, 0
TestParameter, Function.User.Name, R, gm
TestParameter, Function.User.Unit, Ohms, S
TestParameter, Function.User.Definition, Vds/Id, delta(Id)/delta(Vgs)
TestParameter, Output.Graph.Enabled, true
TestParameter, Output.Graph.XAxis.Data, Vgs
TestParameter, Output.Graph.XAxis.Scale, Linear
TestParameter, Output.Graph.XAxis.Left, -50
TestParameter, Output.Graph.XAxis.Right, 50
TestParameter, Output.Graph.YAxis.Data, Id, Is, Ig
TestParameter, Output.Graph.YAxis.Scale, Log, Log, Log
TestParameter, Output.Graph.YAxis.Bottom, -1E-13, 1E-13, 1E-11
TestParameter, Output.Graph.YAxis.Top, -2E-05, 2E-05, 1E-07
TestParameter, Output.Graph.YAxis.Group, , , 
TestParameter, Output.List.Data, Vgs, Vds, Id, Is, Ig, R, gm
TestParameter, AutoAnalysis.Interpolation, false
TestParameter, AutoAnalysis.Line1.Enabled, false
TestParameter, AutoAnalysis.Line1.Type, 1
TestParameter, AutoAnalysis.Line1.Fix, True
TestParameter, AutoAnalysis.Line1.YAxis, 0
TestParameter, AutoAnalysis.Line1.Point1.Type, 0
TestParameter, AutoAnalysis.Line1.Point1.XY.X, 
TestParameter, AutoAnalysis.Line1.Point1.XY.Y, 
TestParameter, AutoAnalysis.Line1.Point1.Data.Var, 
TestParameter, AutoAnalysis.Line1.Point1.Data.Condition, 
TestParameter, AutoAnalysis.Line1.Point1.Data.Start, false
TestParameter, AutoAnalysis.Line1.Point1.Data.StartVar, 
TestParameter, AutoAnalysis.Line1.Point1.Data.StartCondition, 
TestParameter, AutoAnalysis.Line1.Point2.Type, 0
TestParameter, AutoAnalysis.Line1.Point2.XY.X, 
TestParameter, AutoAnalysis.Line1.Point2.XY.Y, 
TestParameter, AutoAnalysis.Line1.Point2.Data.Var, 
TestParameter, AutoAnalysis.Line1.Point2.Data.Condition, 
TestParameter, AutoAnalysis.Line1.Point2.Data.Start, false
TestParameter, AutoAnalysis.Line1.Point2.Data.StartVar, 
TestParameter, AutoAnalysis.Line1.Point2.Data.StartCondition, 
TestParameter, AutoAnalysis.Line1.GradientExpr, 0
TestParameter, AutoAnalysis.Line2.Enabled, false
TestParameter, AutoAnalysis.Line2.Type, 1
TestParameter, AutoAnalysis.Line2.Fix, True
TestParameter, AutoAnalysis.Line2.YAxis, 0
TestParameter, AutoAnalysis.Line2.Point1.Type, 0
TestParameter, AutoAnalysis.Line2.Point1.XY.X, 
TestParameter, AutoAnalysis.Line2.Point1.XY.Y, 
TestParameter, AutoAnalysis.Line2.Point1.Data.Var, 
TestParameter, AutoAnalysis.Line2.Point1.Data.Condition, 
TestParameter, AutoAnalysis.Line2.Point1.Data.Start, false
TestParameter, AutoAnalysis.Line2.Point1.Data.StartVar, 
TestParameter, AutoAnalysis.Line2.Point1.Data.StartCondition, 
TestParameter, AutoAnalysis.Line2.Point2.Type, 0
TestParameter, AutoAnalysis.Line2.Point2.XY.X, 
TestParameter, AutoAnalysis.Line2.Point2.XY.Y, 
TestParameter, AutoAnalysis.Line2.Point2.Data.Var, 
TestParameter, AutoAnalysis.Line2.Point2.Data.Condition, 
TestParameter, AutoAnalysis.Line2.Point2.Data.Start, false
TestParameter, AutoAnalysis.Line2.Point2.Data.StartVar, 
TestParameter, AutoAnalysis.Line2.Point2.Data.StartCondition, 
TestParameter, AutoAnalysis.Line2.GradientExpr, 0
TestParameter, AutoAnalysis.Marker.Enabled, false
TestParameter, AutoAnalysis.Marker.Data.Var, 
TestParameter, AutoAnalysis.Marker.Data.Condition, 
TestParameter, AutoAnalysis.Marker.Data.Start, false
TestParameter, AutoAnalysis.Marker.Data.StartVar, 
TestParameter, AutoAnalysis.Marker.Data.StartCondition, 
MetaData, TestRecord.EntryPoint, true
MetaData, TestRecord.RecordTime, 02/20/2018 02:09:36
MetaData, TestRecord.TestTarget, 180207S1_d4_r2_lch100
MetaData, TestRecord.IterationIndex, 39
MetaData, TestRecord.Preservation, true
MetaData, TestRecord.Flag, ?
MetaData, TestRecord.Remarks, 
MetaData, TestRecord.LinkKey, 071c1838-44bb-4339-847c-e4b725418cb9
Dimension1, 202, 202, 202, 202, 202, 202, 202
Dimension2, 1, 1, 1, 1, 1, 1, 1
DataName, Vgs, Vds, Is, Id, Ig, R, gm
DataValue, 40, -1, -2.0753E-09, -7.619E-10, 5.138E-08, 1312508203.1762698, 3.2671250000000113E-09
DataValue, 39.2, -1, 1.9531E-09, -3.3756E-09, -2.472E-08, 296243630.76193863, 1.5569374999999986E-09
DataValue, 38.4, -1, 1.2217E-09, -3.253E-09, -4.81E-08, 307408545.95757765, -1.5856249999999965E-10
DataValue, 37.6, -1, 8.154E-10, -3.1219E-09, -4.56E-08, 320317755.21317142, 9.1875000000000329E-11
DataValue, 36.800000000000004, -1, 6.2906E-09, -3.4E-09, -2.3799999999999998E-08, 294117647.05882353, 6.2937499999999867E-11
DataValue, 36, -1, 4.0369E-09, -3.2226E-09, -2.554E-08, 310308446.59591633, -1.3006249999999973E-10
DataValue, 35.2, -1, 4.7001E-09, -3.1919E-09, -4.05E-08, 313293022.9643786, -1.0319999999999991E-09
DataValue, 34.4, -1, 2.0877999999999998E-09, -1.5714E-09, 5.1439999999999996E-08, 636375206.82194221, 1.2799999999999987E-10
DataValue, 33.6, -1, 1.607E-09, -3.3967E-09, -4.628E-08, 294403391.5270704, 1.1139374999999992E-09
DataValue, 32.8, -1, 1.169E-09, -3.3537E-09, -4.664E-08, 298178131.61582726, -9.8487499999999925E-10
DataValue, 32, -1, 8.093E-10, -1.8209E-09, 1.4072E-07, 549178977.42874408, -4.0261250000000051E-09
DataValue, 31.2, -1, 1.2055E-09, 3.0881E-09, 2.122E-08, -323823710.37207341, -3.1718125000000046E-09
DataValue, 30.400000000000002, -1, -4.2765E-09, 3.254E-09, 2.3239999999999998E-08, -307314074.98463428, -9.0750000000000036E-11
DataValue, 29.6, -1, -4.598E-09, 3.2333E-09, 3.768E-08, -309281538.98493797, 4.618750000000017E-11
DataValue, 28.8, -1, -1.1988E-09, 3.1801E-09, 4.316E-08, -314455520.26665831, 3.0562500000000043E-11
DataValue, 28, -1, -1.0695E-09, 3.1844E-09, 4.55E-08, -314030900.64062303, 3.2312499999999804E-11
DataValue, 27.2, -1, -8.194E-10, 3.1284E-09, 4.3059999999999996E-08, -319652218.38639557, -8.9875000000000284E-11
DataValue, 26.400000000000002, -1, -6.248E-09, 3.3282E-09, 2.184E-08, -300462712.57736915, 4.265000000000006E-10
DataValue, 25.6, -1, -2.3012E-09, 2.446E-09, -8.99E-08, -408830744.07195419, 5.5749999999999988E-11
DataValue, 24.8, -1, 1.3785E-09, 3.239E-09, 3.89E-08, -308737264.58783573, 2.9396874999999974E-09
DataValue, 24, -1, 1.2445999999999998E-09, -2.2575E-09, 4.468E-08, 442967884.82834995, 2.7609374999999973E-09
DataValue, 23.2, -1, 9.78E-11, -1.1785E-09, 9.074E-08, 848536274.92575312, -3.4108125000000047E-09
DataValue, 22.400000000000002, -1, 1.6509E-09, 3.1998E-09, 4.426E-08, -312519532.47077942, -2.7512500000000037E-09
DataValue, 21.6, -1, -8.983E-10, 3.2235E-09, 4.38E-08, -310221808.59314412, -1.3143749999999986E-10
DataValue, 20.8, -1, -6.1546E-09, 3.4101E-09, 1.9658E-07, -293246532.35975486, -9.3437499999999891E-11
DataValue, 20, -1, -1.8649999999999997E-09, 3.373E-09, -4.46E-08, -296471983.39756894, 7.18750000000013E-12
DataValue, 19.2, -1, -3.4099E-09, 3.3986E-09, -6.302E-08, -294238804.21349967, 3.7341875000000049E-09
DataValue, 18.400000000000002, -1, 2.6384E-09, -2.6017E-09, 1.2662E-07, 384364069.64676946, 1.7646875000000021E-09
DataValue, 17.6, -1, 3.5709E-09, 5.751E-10, -2.316E-08, -1738828029.9078422, -3.2693124999999972E-09
DataValue, 16.8, -1, 4.4463E-09, 2.6292E-09, -1.025E-07, -380343830.823064, -1.6874999999999986E-09
DataValue, 16, -1, 1.4301E-09, 3.2751E-09, 3.99E-08, -305334188.26906049, 3.0211250000000004E-09
DataValue, 15.200000000000001, -1, 1.181E-09, -2.2046E-09, 4.552E-08, 453597024.40351993, 2.7815000000000008E-09
DataValue, 14.4, -1, 2.105E-10, -1.1753E-09, 9.05E-08, 850846592.35939753, -3.4019999999999971E-09
DataValue, 13.6, -1, 1.5199E-09, 3.2386E-09, 4.466E-08, -308775396.77638489, -2.7267500000000003E-09
DataValue, 12.8, -1, -7.192E-10, 3.1875E-09, 4.262E-08, -313725490.19607842, -1.0443750000000001E-10
DataValue, 12, -1, -6.1879E-09, 3.4057E-09, 2.164E-08, -293625392.72396278, -1.4293749999999993E-10
DataValue, 11.200000000000001, -1, -2.0302E-09, 3.4162E-09, 2.292E-08, -292722908.49481881, 1.3749999999999052E-12
DataValue, 10.4, -1, -6.1786E-09, 3.4035E-09, 2.1199999999999998E-08, -293815190.2453357, -5.2500000000000546E-12
DataValue, 9.6, -1, -2.1696E-09, 3.4246E-09, 2.21E-08, -292004905.68241549, 3.0625000000000095E-11
DataValue, 8.8, -1, -1.4494E-09, 3.3545E-09, 3.748E-08, -298107020.42033088, 3.4964375000000008E-09
DataValue, 8, -1, 1.3215999999999999E-09, -2.1697E-09, 4.45E-08, 460893211.04300129, 2.949874999999999E-09
DataValue, 7.2, -1, 4.149E-10, -1.3653E-09, 9.73E-08, 732439756.83000076, -6.8812500000000014E-10
DataValue, 6.4, -1, -4.1075999999999993E-09, -1.0687E-09, 5.174E-08, 935716290.82062316, 1.1302500000000001E-09
DataValue, 5.6000000000000005, -1, 1.4733999999999999E-09, -3.1737E-09, -4.688E-08, 315089643.00343448, 1.4286249999999993E-09
DataValue, 4.8, -1, 6.5372E-09, -3.3545E-09, -2.412E-08, 298107020.42033088, -9.6981249999999954E-10
DataValue, 4, -1, 9.093E-10, -1.622E-09, 1.4788E-07, 616522811.34401977, -4.2090625000000007E-09
DataValue, 3.2, -1, 1.3136E-09, 3.38E-09, 2.186E-08, -295857988.16568047, 3.1987499999999989E-10
DataValue, 2.4, -1, 1.1458E-09, -2.1338E-09, 4.576E-08, 468647483.3630144, 3.4658124999999996E-09
DataValue, 1.6, -1, -2.735E-10, -2.1653E-09, 1.6198E-07, 461829769.546945, -3.386E-09
DataValue, 0.8, -1, 1.3613E-09, 3.2838E-09, -5.9259999999999996E-08, -304525245.14282233, 7.4706250000000008E-10
DataValue, 0, -1, 8.925999999999999E-10, -3.3606E-09, 3.898E-08, 297565910.84925312, 3.072625E-09
DataValue, -0.8, -1, 8.749E-10, -1.6324E-09, 1.4536E-07, 612594952.21759367, -1.4125000000000197E-11
DataValue, -1.6, -1, 9.415E-10, -3.338E-09, -1.516E-07, 299580587.17795086, -3.0685625000000004E-09
DataValue, -2.4, -1, 5.89E-10, 3.2773E-09, -5.852E-08, -305129222.22561258, -5.3837499999999991E-10
DataValue, -3.2, -1, 2.5717E-09, -2.4766E-09, 9.072E-08, 403779374.94952762, 1.1999999999999804E-11
DataValue, -4, -1, 1.5279E-09, 3.2581E-09, 4.402E-08, -306927350.2961849, -3.471812500000001E-09
DataValue, -4.8, -1, -5.9674E-09, 3.0783E-09, -4.544E-08, -324854627.55416954, 4.1351249999999988E-09
DataValue, -5.6000000000000005, -1, 4.2149E-09, -3.3581E-09, -2.0144E-07, 297787439.32580924, 3.9871249999999989E-09
DataValue, -6.4, -1, -1.0564E-09, -3.3011E-09, 4.29E-08, 302929326.588107, -6.3749999999998891E-12
DataValue, -7.2, -1, 2.4677E-09, -3.3479E-09, -2.414E-08, 298694704.14289552, 4.6249999999998685E-12
DataValue, -8, -1, 2.4649E-09, -3.3085E-09, -2.426E-08, 302251775.72918242, -7.060624999999997E-10
DataValue, -8.8, -1, 2.0551E-09, -2.2182E-09, 1.5346E-07, 450815976.91822195, -4.1843750000000009E-09
DataValue, -9.6, -1, 7.204E-10, 3.3865E-09, 1.4858E-07, -295290122.54540086, -3.2985625000000006E-09
DataValue, -10.4, -1, 2.5618E-09, 3.0595E-09, -1.4274E-07, -326850792.61317205, -8.3125000000002152E-12
DataValue, -11.200000000000001, -1, 1.3415E-09, 3.3998E-09, 1.792E-07, -294134949.11465377, -1.7406249999999991E-10
DataValue, -12, -1, 6.678E-10, 3.338E-09, -6.254E-08, -299580587.17795086, 3.6898125000000005E-09
DataValue, -12.8, -1, 2.7036E-09, -2.5039E-09, 9.306E-08, 399376971.92379886, 9.6650000000000013E-10
DataValue, -13.6, -1, 6.4623E-09, 1.7916E-09, -1.4786E-07, -558160303.6392051, -3.686250000000001E-09
DataValue, -14.4, -1, 1.3362E-09, 3.3941E-09, 2.176E-08, -294628914.88170648, 2.3125000000000095E-11
DataValue, -15.200000000000001, -1, -5.891E-10, 1.7546E-09, -1.4838E-07, -569930468.48284507, -6.0625000000000518E-12
DataValue, -16, -1, 1.3295E-09, 3.4038E-09, 2.066E-08, -293789294.31811506, 1.9409375000000006E-09
DataValue, -16.8, -1, 2.2329999999999996E-09, -1.3509E-09, 4.954E-08, 740247242.57902145, 3.7118749999999981E-10
DataValue, -17.6, -1, -6.1691E-09, 2.8099E-09, -4.552E-08, -355884551.05163884, 1.2756249999999986E-10
DataValue, -18.400000000000002, -1, 8.802E-10, -1.555E-09, 1.4824E-07, 643086816.72025728, -4.363125000000005E-10
DataValue, -19.2, -1, 1.3478E-09, 3.508E-09, 2.1739999999999998E-08, -285062713.79703534, -2.6872500000000031E-09
DataValue, -20, -1, -2.3595E-09, 2.7446E-09, -1.1088E-07, -364351818.11557239, 3.6006249999999965E-09
DataValue, -20.8, -1, -3.0337999999999996E-09, -2.253E-09, 4.64E-08, 443852640.92321348, 1.2312499999999888E-11
DataValue, -21.6, -1, -6.1279E-09, 2.7249E-09, -4.8679999999999997E-08, -366985944.438328, 5.6406249999999957E-10
DataValue, -22.400000000000002, -1, 3.697E-09, -3.1555E-09, -2.946E-08, 316906987.79908097, 3.6505625000000052E-09
DataValue, -23.2, -1, 5.3132E-09, -3.116E-09, 6.108E-08, 320924261.87419766, -3.9550625000000055E-09
DataValue, -24, -1, -4.3068E-09, 3.1726E-09, 2.044E-08, -315198890.49990547, -2.8521874999999974E-09
DataValue, -24.8, -1, 5.4643E-09, 1.4475E-09, -9.498E-08, -690846286.701209, -1.8712499999999986E-10
DataValue, -25.6, -1, 1.5849E-09, 3.472E-09, 4.4839999999999997E-08, -288018433.1797235, -7.0281249999999922E-10
DataValue, -26.400000000000002, -1, -5.8189E-09, 2.572E-09, 7.49E-08, -388802488.3359254, 4.7125000000000044E-11
DataValue, -27.2, -1, 1.9826E-09, 3.3966E-09, 4.26E-08, -294412059.11794144, 4.2637500000000056E-10
DataValue, -28, -1, -6.1354E-09, 1.8898E-09, 8.848E-08, -529156524.49994713, 7.0493749999999946E-10
DataValue, -28.8, -1, 6.4917E-09, 2.2687E-09, -1.4536E-07, -440781064.04548866, -1.1233124999999991E-09
DataValue, -29.6, -1, 1.3659E-09, 3.6871E-09, 2.894E-08, -271215860.70353395, 4.7656249999999941E-10
DataValue, -30.400000000000002, -1, 5.4926E-09, 1.5062E-09, -8.992E-08, -663922453.85738945, 5.3125000000000082E-11
DataValue, -31.2, -1, 1.73E-09, 3.6020999999999998E-09, 4.424E-08, -277615835.20724022, -6.0668750000000075E-10
DataValue, -32, -1, -5.8864E-09, 2.4769E-09, 8.73E-08, -403730469.53853607, 9.4606250000000115E-10
DataValue, -32.8, -1, 6.4955E-09, 2.0884E-09, -1.4832E-07, -478835472.13177556, -1.6362499999999989E-10
DataValue, -33.6, -1, 8.391E-10, 2.7387E-09, -4.77E-08, -365136743.71051955, -1.0374999999999994E-10
DataValue, -34.4, -1, -6.0107E-09, 2.2544E-09, 9.0519999999999993E-08, -443577004.96806246, -4.6674999999999955E-10
DataValue, -35.2, -1, 1.8675E-09, 3.4855E-09, 4.42E-08, -286902883.3739779, 5.3375000000000042E-11
DataValue, -36, -1, -5.274E-10, 2.169E-09, -1.4698E-07, -461041954.81788844, -1.6049999999999996E-10
DataValue, -36.800000000000004, -1, 1.3434E-09, 3.7423E-09, 2.134E-08, -267215348.8496379, -9.9956249999999915E-10
DataValue, -37.6, -1, -1.9201E-09, 3.7683E-09, 2.086E-08, -265371653.00002655, 1.0236250000000039E-09
DataValue, -38.4, -1, -6.1272E-09, 2.1045E-09, 8.842E-08, -475172249.94060349, 8.4687499999999792E-11
DataValue, -39.2, -1, 1.5296E-09, 3.6328E-09, 3.4439999999999996E-08, -275269764.36908168, 2.4939374999999973E-09
DataValue, -40, -1, 1.3255999999999999E-09, -1.8858E-09, 4.508E-08, 530278926.71545237, 6.3162500000000267E-10
DataValue, -40, -1, -4.1029999999999996E-09, 3.1275E-09, 2.952E-07, -319744204.63629097, 6.7591250000000236E-09
DataValue, -39.2, -1, 4.716E-10, 3.5215E-09, -5.824E-08, -283969899.19068581, -3.3948124999999969E-09
DataValue, -38.4, -1, 2.5099E-09, -2.3042E-09, 1.0382E-07, 433990105.02560544, -4.128249999999996E-09
DataValue, -37.6, -1, -1.377E-09, -3.0837E-09, -4.814E-08, 324285760.61225152, 4.5306250000000166E-10
DataValue, -36.800000000000004, -1, 8.195E-10, -1.5793E-09, 1.4347999999999999E-07, 633191920.47109485, -1.1206249999999989E-10
DataValue, -36, -1, -1.1971E-09, -3.263E-09, -2.482E-08, 306466441.92460924, -9.3518749999999916E-10
DataValue, -35.2, -1, 4.545E-09, -3.0756E-09, -3.488E-08, 325139810.11835086, 3.6210624999999966E-09
DataValue, -34.4, -1, -1.3391999999999999E-09, 2.5307E-09, -4.314E-08, -395147587.62397754, 3.4477499999999969E-09
DataValue, -33.6, -1, 3.06E-10, 2.4408E-09, 5.562E-08, -409701737.13536543, -6.9018749999999938E-10
DataValue, -32.8, -1, -3.784E-10, 1.4264E-09, -9.064E-08, -701065619.74200785, 5.7856249999999937E-10
DataValue, -32, -1, 1.82E-11, 3.3665E-09, 2.1459999999999998E-08, -297044408.13901681, -2.2558125000000032E-09
DataValue, -31.2, -1, 1.0409999999999998E-09, -2.1829E-09, 4.9659999999999996E-08, 458106189.01461357, -3.5485000000000044E-09
DataValue, -30.400000000000002, -1, 5.4871E-09, -2.3111E-09, 9.022E-08, 432694387.95378822, -6.5506250000000091E-10
DataValue, -29.6, -1, -1.4059E-09, -3.231E-09, -4.536E-08, 309501702.2593624, 6.9506249999999933E-10
DataValue, -28.8, -1, -2.07E-11, -1.199E-09, 9.044E-08, 834028356.96413672, 1.1187500000000062E-11
DataValue, -28, -1, -1.5694E-09, -3.2131E-09, -4.866E-08, 311225918.89452553, -1.199812499999999E-09
DataValue, -27.2, -1, 8.875E-10, -3.1187E-09, -4.496E-08, 320646423.18914932, 1.582375000000002E-09
DataValue, -26.400000000000002, -1, -1.0843E-09, -6.813E-10, 5.698E-08, 1467782181.1243212, -1.3600000000000028E-10
DataValue, -25.6, -1, -3.95E-11, -3.3363E-09, -2.3519999999999998E-08, 299733237.41869736, -1.6828749999999985E-09
DataValue, -24.8, -1, 6.2342E-09, -3.3739E-09, -2.4E-08, 296392898.42615372, 1.63125E-10
DataValue, -24, -1, 7.932E-10, -3.0753E-09, -4.616E-08, 325171527.98101, 1.8093750000000003E-10
DataValue, -23.2, -1, 5.832E-09, -3.0844E-09, 4.474E-08, 324212164.44040984, 2.7085625000000033E-09
DataValue, -22.400000000000002, -1, -1.019E-10, 1.2584E-09, -8.798E-08, -794659885.56897652, 6.0543750000000068E-10
DataValue, -21.6, -1, -6.1424E-09, -2.1157E-09, 1.622E-07, 472656803.89469206, -2.8324999999999974E-09
DataValue, -20.8, -1, -5.719E-10, -3.2736E-09, 6.066E-08, 305474095.79667646, 2.9066249999999971E-09
DataValue, -20, -1, -5.6179E-09, 2.5349E-09, -8.708E-08, -394492879.40352678, 4.1263749999999963E-09
DataValue, -19.2, -1, 2.48E-11, 3.3286E-09, 2.162E-08, -300426605.78020793, 5.2993750000000068E-10
DataValue, -18.400000000000002, -1, -6.4061E-09, 3.3828E-09, 2.156E-08, -295613101.5726617, 1.3437500000000004E-11
