
SetupTitle, Id-Vgs
PrimitiveTest, I/V Sweep
TestParameter, Context.MainFrame, B1500A
TestParameter, Channel.UnitType, SMU, SMU, SMU
TestParameter, Channel.Unit, SMU1:MP, SMU4:MP, SMU5:MP
TestParameter, Channel.IName, Is, Id, Ig
TestParameter, Channel.VName, Vs, Vds, Vgs
TestParameter, Channel.Mode, V, V, V
TestParameter, Channel.Func, CONST, VAR2, VAR1
TestParameter, Channel.Index, 
TestParameter, Channel.Time, 
TestParameter, Measurement.Port.Unit, SMU1:MP, SMU4:MP, SMU5:MP
TestParameter, Measurement.Port.SeriesResistor, NONE, NONE, NONE
TestParameter, Measurement.Port.Filter, ON, ON, ON
TestParameter, Measurement.Port.OutputVoltageComparison, 0, 0, 0
TestParameter, Measurement.Primary.Locus, Double
TestParameter, Measurement.Primary.Scale, LINEAR
TestParameter, Measurement.Primary.Start, 40
TestParameter, Measurement.Primary.Stop, -40
TestParameter, Measurement.Primary.Step, -0.8
TestParameter, Measurement.Primary.Compliance, 1E-06
TestParameter, Measurement.Primary.PowerCompliance, 0
TestParameter, Measurement.Aborting.Condition, CONTINUE AT ANY
TestParameter, Measurement.PostOutput.Value, START
TestParameter, Measurement.PostOutput.Retention, OFF
TestParameter, Measurement.Secondary.Start, -1
TestParameter, Measurement.Secondary.Count, 1
TestParameter, Measurement.Secondary.Step, -0.5
TestParameter, Measurement.Secondary.Compliance, 0.0005
TestParameter, Measurement.Secondary.PowerCompliance, 0
TestParameter, Measurement.Bias.Source, 0, -1, 40
TestParameter, Measurement.Bias.Compliance, 0.1, 0.0005, 1E-06
TestParameter, Measurement.Monitor.Unit, SMU1:MP, SMU4:MP, SMU5:MP
TestParameter, Measurement.Monitor.Adc, HR ADC, HR ADC, HR ADC
TestParameter, Measurement.Monitor.Measurement, Compliance Side, Compliance Side, Compliance Side
TestParameter, Measurement.Monitor.RangingMode, LIMITED, LIMITED, LIMITED
TestParameter, Measurement.Monitor.RangeBoundary, 1nA, 1nA, 1nA
TestParameter, Measurement.Monitor.RangeRating, BY FULL RANGE, BY FULL RANGE, BY FULL RANGE
TestParameter, Measurement.Monitor.RangeRatingCoeff, 50, 50, 50
TestParameter, Measurement.Timing.Hold, 0
TestParameter, Measurement.Timing.Delay, 0
TestParameter, Measurement.Adc.HighSpeed.Mode, AUTO
TestParameter, Measurement.Adc.HighSpeed.Coeff, 1
TestParameter, Measurement.Adc.HighResolution.AutoZero, OFF
TestParameter, Measurement.Adc.HighResolution.Mode, AUTO
TestParameter, Measurement.Adc.HighResolution.Coeff, 4
TestParameter, Measurement.WaitTime.Source.Coeff, 1
TestParameter, Measurement.WaitTime.Source.Offset, 0
TestParameter, Measurement.WaitTime.Monitor.Coeff, 1
TestParameter, Measurement.WaitTime.Monitor.Offset, 0
TestParameter, Function.User.Name, R, gm
TestParameter, Function.User.Unit, Ohms, S
TestParameter, Function.User.Definition, Vds/Id, delta(Id)/delta(Vgs)
TestParameter, Output.Graph.Enabled, true
TestParameter, Output.Graph.XAxis.Data, Vgs
TestParameter, Output.Graph.XAxis.Scale, Linear
TestParameter, Output.Graph.XAxis.Left, -50
TestParameter, Output.Graph.XAxis.Right, 50
TestParameter, Output.Graph.YAxis.Data, Id, Is, Ig
TestParameter, Output.Graph.YAxis.Scale, Log, Log, Log
TestParameter, Output.Graph.YAxis.Bottom, -1E-13, 1E-13, 1E-11
TestParameter, Output.Graph.YAxis.Top, -2E-05, 2E-05, 1E-07
TestParameter, Output.Graph.YAxis.Group, , , 
TestParameter, Output.List.Data, Vgs, Vds, Id, Is, Ig, R, gm
TestParameter, AutoAnalysis.Interpolation, false
TestParameter, AutoAnalysis.Line1.Enabled, false
TestParameter, AutoAnalysis.Line1.Type, 1
TestParameter, AutoAnalysis.Line1.Fix, True
TestParameter, AutoAnalysis.Line1.YAxis, 0
TestParameter, AutoAnalysis.Line1.Point1.Type, 0
TestParameter, AutoAnalysis.Line1.Point1.XY.X, 
TestParameter, AutoAnalysis.Line1.Point1.XY.Y, 
TestParameter, AutoAnalysis.Line1.Point1.Data.Var, 
TestParameter, AutoAnalysis.Line1.Point1.Data.Condition, 
TestParameter, AutoAnalysis.Line1.Point1.Data.Start, false
TestParameter, AutoAnalysis.Line1.Point1.Data.StartVar, 
TestParameter, AutoAnalysis.Line1.Point1.Data.StartCondition, 
TestParameter, AutoAnalysis.Line1.Point2.Type, 0
TestParameter, AutoAnalysis.Line1.Point2.XY.X, 
TestParameter, AutoAnalysis.Line1.Point2.XY.Y, 
TestParameter, AutoAnalysis.Line1.Point2.Data.Var, 
TestParameter, AutoAnalysis.Line1.Point2.Data.Condition, 
TestParameter, AutoAnalysis.Line1.Point2.Data.Start, false
TestParameter, AutoAnalysis.Line1.Point2.Data.StartVar, 
TestParameter, AutoAnalysis.Line1.Point2.Data.StartCondition, 
TestParameter, AutoAnalysis.Line1.GradientExpr, 0
TestParameter, AutoAnalysis.Line2.Enabled, false
TestParameter, AutoAnalysis.Line2.Type, 1
TestParameter, AutoAnalysis.Line2.Fix, True
TestParameter, AutoAnalysis.Line2.YAxis, 0
TestParameter, AutoAnalysis.Line2.Point1.Type, 0
TestParameter, AutoAnalysis.Line2.Point1.XY.X, 
TestParameter, AutoAnalysis.Line2.Point1.XY.Y, 
TestParameter, AutoAnalysis.Line2.Point1.Data.Var, 
TestParameter, AutoAnalysis.Line2.Point1.Data.Condition, 
TestParameter, AutoAnalysis.Line2.Point1.Data.Start, false
TestParameter, AutoAnalysis.Line2.Point1.Data.StartVar, 
TestParameter, AutoAnalysis.Line2.Point1.Data.StartCondition, 
TestParameter, AutoAnalysis.Line2.Point2.Type, 0
TestParameter, AutoAnalysis.Line2.Point2.XY.X, 
TestParameter, AutoAnalysis.Line2.Point2.XY.Y, 
TestParameter, AutoAnalysis.Line2.Point2.Data.Var, 
TestParameter, AutoAnalysis.Line2.Point2.Data.Condition, 
TestParameter, AutoAnalysis.Line2.Point2.Data.Start, false
TestParameter, AutoAnalysis.Line2.Point2.Data.StartVar, 
TestParameter, AutoAnalysis.Line2.Point2.Data.StartCondition, 
TestParameter, AutoAnalysis.Line2.GradientExpr, 0
TestParameter, AutoAnalysis.Marker.Enabled, false
TestParameter, AutoAnalysis.Marker.Data.Var, 
TestParameter, AutoAnalysis.Marker.Data.Condition, 
TestParameter, AutoAnalysis.Marker.Data.Start, false
TestParameter, AutoAnalysis.Marker.Data.StartVar, 
TestParameter, AutoAnalysis.Marker.Data.StartCondition, 
MetaData, TestRecord.EntryPoint, true
MetaData, TestRecord.RecordTime, 02/20/2018 02:43:48
MetaData, TestRecord.TestTarget, 180207S4_d1_r2_lch50
MetaData, TestRecord.IterationIndex, 61
MetaData, TestRecord.Preservation, true
MetaData, TestRecord.Flag, ?
MetaData, TestRecord.Remarks, 
MetaData, TestRecord.LinkKey, e89c7f3f-c3ec-4ff9-80c3-0073e07094f4
Dimension1, 202, 202, 202, 202, 202, 202, 202
Dimension2, 1, 1, 1, 1, 1, 1, 1
DataName, Vgs, Vds, Is, Id, Ig, R, gm
DataValue, 40, -1, -1.3420999999999998E-08, -4.8516E-09, -1.535E-07, 206117569.4616209, -5.54262500000002E-09
DataValue, 39.2, -1, -8.9257999999999991E-09, -4.175E-10, -6.152E-08, 2395209580.8383231, -3.2140624999999975E-09
DataValue, 38.4, -1, -7.1437999999999993E-09, 2.909E-10, -2.3659999999999998E-08, -3437607425.2320385, -6.5781249999999948E-10
DataValue, 37.6, -1, 1.2257999999999998E-09, 6.35E-10, -3.08E-08, -1574803149.6062992, -2.4301875000000082E-09
DataValue, 36.800000000000004, -1, -4.2766E-09, 4.1792E-09, -4.572E-08, -239280245.02297092, -1.7415624999999985E-09
DataValue, 36, -1, -5.52E-09, 3.4215E-09, -1.4156E-07, -292269472.45360225, -1.293750000000008E-11
DataValue, 35.2, -1, -4.0842E-09, 4.1999E-09, 2.1635999999999999E-07, -238100907.16445631, -5.0918749999999959E-10
DataValue, 34.4, -1, -9.488E-10, 4.2362E-09, 3.914E-08, -236060620.36731035, 1.6278124999999985E-09
DataValue, 33.6, -1, 4.1424E-09, 1.5954E-09, -9.496E-08, -626802055.91074336, 2.0501874999999983E-09
DataValue, 32.8, -1, 2.8025E-09, 9.559E-10, -5.174E-08, -1046134532.9009311, -9.5562499999999883E-11
DataValue, 32, -1, 4.6304E-09, 1.7483E-09, -1.1526E-07, -571984213.23571467, -2.0720625000000028E-09
DataValue, 31.2, -1, -2.9007999999999997E-09, 4.2712E-09, -4.49E-08, -234126240.86907661, -1.9825000000000019E-10
DataValue, 30.400000000000002, -1, -4.4333E-09, 2.0655E-09, -1.4332E-07, -484144274.99394822, 4.7833125000000067E-09
DataValue, 29.6, -1, -3.7383999999999994E-09, -3.3821E-09, 1.0514E-07, 295674285.20741552, -1.3650624999999988E-09
DataValue, 28.8, -1, 8.979E-10, 4.2496E-09, 2.834E-08, -235316265.06024098, -4.7688749999999961E-09
DataValue, 28, -1, -1.8434E-09, 4.2481E-09, 4.18E-08, -235399355.00576729, 2.3693124999999979E-09
DataValue, 27.2, -1, -1.1769E-09, 4.587E-10, -1.592E-08, -2180074122.5201659, -5.3812500000000292E-11
DataValue, 26.400000000000002, -1, -1.955E-09, 4.3342E-09, -4.402E-08, -230723086.15200037, -2.4150625000000034E-09
DataValue, 25.6, -1, -1.5046E-09, 4.3228E-09, -6.346E-08, -231331544.36939022, 1.8125624999999983E-09
DataValue, 24.8, -1, 6.3959999999999994E-10, 1.4341E-09, -8.7659999999999992E-08, -697301443.41398788, 5.2552499999999951E-09
DataValue, 24, -1, 6.2289999999999991E-09, -4.0856E-09, -1.3854E-07, 244762091.24730763, 3.4688124999999972E-09
DataValue, 23.2, -1, 5.4045999999999993E-09, -4.116E-09, -4.136E-08, 242954324.58697763, -2.9245625000000038E-09
DataValue, 22.400000000000002, -1, 3.5848E-09, 5.937E-10, -6.502E-08, -1684352366.515075, -4.9080625000000067E-09
DataValue, 21.6, -1, 2.9798E-09, 3.7369E-09, -1.4894E-07, -267601487.86427251, -1.5960624999999985E-09
DataValue, 20.8, -1, 8.648E-10, 3.1474E-09, -4.944E-08, -317722564.65654188, 3.9769999999999965E-09
DataValue, 20, -1, -1.0319999999999999E-10, -2.6263E-09, -8.942E-08, 380763812.20728785, 4.4994999999999959E-09
DataValue, 19.2, -1, 5.9195999999999993E-09, -4.0518E-09, -1.467E-07, 246803889.62930059, 9.0993750000000113E-10
DataValue, 18.400000000000002, -1, 4.4821999999999993E-09, -4.0822E-09, -1.9277999999999998E-07, 244965949.73298714, -2.6004375000000031E-09
DataValue, 17.6, -1, 5.4317999999999994E-09, 1.089E-10, 7.68E-08, -9182736455.463728, -4.1474999999999954E-09
DataValue, 16.8, -1, -5.2639E-09, 2.5537999999999996E-09, -5.338E-08, -391573341.686898, 2.4887499999999976E-09
DataValue, 16, -1, -4.2695E-09, -3.8731E-09, -4.992E-08, 258191113.06188843, 2.9386250000000003E-09
DataValue, 15.200000000000001, -1, 1.5626E-09, -2.148E-09, 1.5058E-07, 465549348.23091245, -1.5750625000000003E-09
DataValue, 14.4, -1, -4.606E-09, -1.353E-09, 8.634E-08, 739098300.07390988, -8.3093749999999923E-10
DataValue, 13.6, -1, -3.3096E-09, -8.185E-10, 3.726E-08, 1221747098.3506415, 1.3531250000000004E-10
DataValue, 12.8, -1, -5.0726E-09, -1.5695E-09, 8.68E-08, 637145587.7668047, 4.381250000000001E-11
DataValue, 12, -1, -3.4168E-09, -8.886E-10, 5.506E-08, 1125365743.8667567, 1.0843750000000007E-10
DataValue, 11.200000000000001, -1, -5.4714E-09, -1.743E-09, 1.112E-07, 573723465.28973031, 7.5500000000000037E-11
DataValue, 10.4, -1, -3.6102E-09, -1.0094E-09, 7.762E-08, 990687537.15078259, 3.3374999999999865E-11
DataValue, 9.6, -1, -5.5209E-09, -1.7964E-09, 1.2886E-07, 556668893.3422401, 1.9925E-09
DataValue, 8.8, -1, 3.0717999999999997E-09, -4.1974E-09, -4.7459999999999996E-08, 238242721.68485254, -1.5475000000000005E-09
DataValue, 8, -1, 4.2264E-09, 6.796E-10, -5.8279999999999996E-08, -1471453796.3507946, -4.5636874999999984E-09
DataValue, 7.2, -1, -1.0961999999999998E-09, 3.1045E-09, 2.7534E-07, -322113061.68465132, -1.3518125000000003E-09
DataValue, 6.4, -1, -5.1809E-09, 2.8425E-09, 9E-08, -351802990.32541776, 3.7250000000000059E-11
DataValue, 5.6000000000000005, -1, -1.1043999999999998E-09, 3.0449E-09, 7.338E-08, -328418010.44369274, -3.6749999999999886E-11
DataValue, 4.8, -1, 7.2873E-09, 2.9013E-09, 4.79E-08, -344673077.58590978, -5.981874999999998E-10
DataValue, 4, -1, -3.0597E-09, 4.002E-09, -4.8159999999999996E-08, -249875062.46876562, 4.0178750000000007E-09
DataValue, 3.2, -1, 4.2061E-09, -3.5273E-09, -4.916E-08, 283502962.60595924, 4.66575E-09
DataValue, 2.4, -1, 4.2287E-09, -3.4632E-09, 1.4834E-07, 288750288.75028872, -1.40775E-09
DataValue, 1.6, -1, -4.0482E-09, -1.2749E-09, 8.998E-08, 784375245.117264, -4.1574375E-09
DataValue, 0.8, -1, -7.5039999999999991E-10, 3.1887E-09, 2.7666E-07, -313607426.223853, -3.0455625E-09
DataValue, 0, -1, -5.128E-09, 3.598E-09, 5.23E-08, -277932184.54697055, 5.8081250000000006E-10
DataValue, -0.8, -1, 6.976E-10, 2.2594E-09, 4.4039999999999996E-08, -442595379.30424011, 9.64375E-10
DataValue, -1.6, -1, -1.9254E-09, 2.055E-09, 4.814E-08, -486618004.86618006, -1.0425000000000003E-09
DataValue, -2.4, -1, -1.7309E-09, 3.9274E-09, 3.732E-08, -254621378.01089779, -1.3001250000000002E-09
DataValue, -3.2, -1, -2.4936E-09, 4.1352E-09, -5.052E-08, -241826272.00619072, 4.6669375E-09
DataValue, -4, -1, 4.4691E-09, -3.5397E-09, -4.78E-08, 282509817.21614826, 1.5680000000000006E-09
DataValue, -4.8, -1, 1.6409E-09, 1.6264E-09, 1.438E-07, -614854894.24495816, -1.4052499999999995E-09
DataValue, -5.6000000000000005, -1, -3.6912E-09, -1.2913E-09, 9.004E-08, 774413381.86323857, -9.317499999999996E-10
DataValue, -6.4, -1, -3.2139999999999994E-10, 3.1172E-09, 2.9094E-07, -320800718.59360963, -2.3390625000000004E-09
DataValue, -7.2, -1, 2.8817999999999997E-09, 2.4511999999999996E-09, -4.5679999999999996E-08, -407963446.47519588, 4.5714375000000005E-09
DataValue, -8, -1, 2.3122E-09, -4.1971E-09, -1.5076E-07, 238259750.78030068, 4.0531874999999985E-09
DataValue, -8.8, -1, 5.012E-09, -4.0339E-09, -2.032E-07, 247899055.5045985, -2.7278125000000007E-09
DataValue, -9.6, -1, 6.0577999999999995E-09, 1.674E-10, 7.646E-08, -5973715651.135006, -3.5850625000000012E-09
DataValue, -10.4, -1, 9.121E-10, 1.7022E-09, 1.463E-07, -587475032.31112683, 8.6849999999999922E-10
DataValue, -11.200000000000001, -1, -3.5515E-09, -1.2222E-09, 8.818E-08, 818196694.4853543, 2.2386250000000006E-09
DataValue, -12, -1, -4.7536E-09, -1.8796E-09, 1.4394E-07, 532028091.08320922, 1.1125000000000003E-10
DataValue, -12.8, -1, -3.8642E-09, -1.4002E-09, 8.552E-08, 714183688.04456508, -7.1918750000000011E-10
DataValue, -13.6, -1, -2.1092E-09, -7.289E-10, 3.33E-08, 1371930305.9404581, 9.875000000000058E-12
DataValue, -14.4, -1, -4.028E-09, -1.416E-09, 8.4379999999999992E-08, 706214689.26553667, -2.2630624999999981E-09
DataValue, -15.200000000000001, -1, 5.1077999999999993E-09, 2.892E-09, -1.5115999999999999E-07, -345781466.11341631, -2.3796250000000005E-09
DataValue, -16, -1, 2.9132E-09, 2.3914E-09, -4.586E-08, -418165091.5781551, 2.9368750000000004E-09
DataValue, -16.8, -1, 2.8131E-09, -1.807E-09, 1.4802E-07, 553403431.10127282, 2.2828749999999979E-09
DataValue, -17.6, -1, -3.7297E-09, -1.2612E-09, 8.872E-08, 792895654.931811, -3.0041874999999973E-09
DataValue, -18.400000000000002, -1, -4.122E-10, 2.9997E-09, 7.892E-08, -333366670.00033337, -6.368750000000011E-11
DataValue, -19.2, -1, -2.0495999999999996E-09, -1.1593E-09, -4.77E-08, 862589493.6599673, 4.3718750000000051E-10
DataValue, -20, -1, 1.065E-09, 2.3002E-09, 4.382E-08, -434744804.79958266, -2.0627499999999981E-09
DataValue, -20.8, -1, -1.4358E-09, 2.1411E-09, 4.574E-08, -467049647.37751621, 1.0231250000000002E-10
DataValue, -21.6, -1, -1.376E-09, 2.1365E-09, 4.634E-08, -468055230.51720107, 6.8687499999999808E-11
DataValue, -22.400000000000002, -1, -1.3582E-09, 2.0312E-09, 5.22E-08, -492319810.94919252, -1.0843125000000014E-09
DataValue, -23.2, -1, -1.1343E-09, 3.8714E-09, 4.076E-08, -258304489.3320246, -5.2250000000000072E-11
DataValue, -24, -1, -1.4848E-09, 2.1148E-09, 5.148E-08, -472857953.47077733, -1.3812500000000347E-11
DataValue, -24.8, -1, -1.252E-09, 3.8935E-09, 3.9E-08, -256838320.27738538, -7.0062499999999713E-11
DataValue, -25.6, -1, -1.7556E-09, 2.2269E-09, 4.464E-08, -449054739.77277833, 1.1191874999999994E-09
DataValue, -26.400000000000002, -1, -1.4555E-09, 2.1028E-09, 4.962E-08, -475556400.98915738, 6.1562500000000091E-11
DataValue, -27.2, -1, -1.4712E-09, 2.1284E-09, 4.968E-08, -469836496.89907914, -1.1060625000000014E-09
DataValue, -28, -1, -1.26E-09, 3.8725E-09, 3.8139999999999996E-08, -258231116.84958041, -2.3543749999999989E-10
DataValue, -28.8, -1, -1.8601E-09, 2.5051E-09, 3.5519999999999996E-08, -399185661.25104785, 1.0283124999999989E-09
DataValue, -29.6, -1, -1.646E-09, 2.2272E-09, 4.858E-08, -448994252.87356323, -8.5599999999999942E-10
DataValue, -30.400000000000002, -1, -1.1113E-09, 3.8747E-09, 3.582E-08, -258084496.86427334, -1.2340000000000017E-09
DataValue, -31.2, -1, -2.007E-09, 4.2016E-09, -4.922E-08, -238004569.687738, 5.0134375000000071E-09
DataValue, -32, -1, 2.022E-09, -4.1468E-09, 1.243E-07, 241149802.25716215, 4.9251250000000062E-09
DataValue, -32.8, -1, 2.8799999999999996E-09, -3.6786E-09, -1.6488E-07, 271842548.7957375, -3.8703749999999964E-09
DataValue, -33.6, -1, 1.6436E-09, 2.0458E-09, 5.1E-08, -488806334.93010068, -4.7091249999999954E-09
DataValue, -34.4, -1, -9.349E-10, 3.856E-09, 3.764E-08, -259336099.58506224, -2.1712499999999973E-10
DataValue, -35.2, -1, -1.5844E-09, 2.3932E-09, 3.8419999999999996E-08, -417850576.63379574, 9.47874999999999E-10
DataValue, -36, -1, -1.5848E-09, 2.3394E-09, 4.1979999999999996E-08, -427460032.4869625, 1.8949999999999979E-10
DataValue, -36.800000000000004, -1, -1.1944E-09, 2.09E-09, 5.132E-08, -478468899.52153111, -8.9812499999999942E-10
DataValue, -37.6, -1, -8.025E-10, 3.7764E-09, 4.272E-08, -264802457.36680433, -6.89375000000002E-11
DataValue, -38.4, -1, -1.2863E-09, 2.2003E-09, 4.5E-08, -454483479.52551925, -1.8999999999999608E-11
DataValue, -39.2, -1, -1.0363E-09, 3.8068E-09, 4.088E-08, -262687821.79258171, 1.8312499999999914E-11
DataValue, -40, -1, -1.3628E-09, 2.171E-09, 5.154E-08, -460617227.08429295, 1.0422500000000033E-09
DataValue, -40, -1, -3.2714E-09, 2.973E-09, 4.872E-08, -336360578.54019511, 2.3942500000000088E-09
DataValue, -39.2, -1, -3.3456E-09, 4.0864E-09, -4.852E-08, -244714173.8449491, -7.3174999999999926E-10
DataValue, -38.4, -1, 6.943E-10, 1.8022E-09, 1.0458E-07, -554877372.10076571, -3.2536249999999972E-09
DataValue, -37.6, -1, -3.6472E-09, -1.1194E-09, 8.398E-08, 893335715.56190813, 1.5694375000000053E-09
DataValue, -36.800000000000004, -1, -1.4857999999999998E-09, 4.3133E-09, -5.534E-08, -231841049.7762734, 1.8918124999999982E-09
DataValue, -36, -1, -2.8704E-09, 1.9075E-09, -1.5226E-07, -524246395.80602884, -2.0093749999999967E-10
DataValue, -35.2, -1, -5.981E-09, 3.9918E-09, 3.704E-08, -250513552.78320557, -8.5593749999999914E-10
DataValue, -34.4, -1, -9.095E-10, 5.38E-10, -5.5419999999999996E-08, -1858736059.4795539, -1.132749999999999E-09
DataValue, -33.6, -1, 1.6083E-09, 2.1794E-09, -1.6416E-07, -458841883.08708817, 2.3384374999999984E-09
DataValue, -32.8, -1, -1.2685E-09, 4.2795E-09, -5.962E-08, -233672157.96237877, -2.8671249999999974E-09
DataValue, -32, -1, 5.8582E-09, -2.408E-09, 5.156E-08, 415282392.02657807, -4.9570000000000068E-09
DataValue, -31.2, -1, -3.1105999999999996E-09, -3.6517E-09, 2.9538E-07, 273845058.46592, 2.291875000000003E-10
DataValue, -30.400000000000002, -1, -1.5036E-09, -2.0413E-09, 1.491E-07, 489883897.51628864, -3.9912500000000068E-10
DataValue, -29.6, -1, -1.3072E-09, -4.2903E-09, -2.536E-08, 233083933.52446213, 7.6299999999999933E-10
DataValue, -28.8, -1, 1.8612E-09, -8.205E-10, 8.232E-08, 1218769043.2663009, 2.3718749999999991E-10
DataValue, -28, -1, -2.3457E-09, -3.9108E-09, -4.8159999999999996E-08, 255702158.12621456, -1.135812499999999E-09
DataValue, -27.2, -1, 4.8265E-09, -2.6378E-09, -5.138E-08, 379103798.62006217, -1.0812499999999971E-11
DataValue, -26.400000000000002, -1, 3.9619E-09, -3.9281E-09, 4.4179999999999996E-08, 254576003.66589445, 3.8823125000000049E-09
DataValue, -25.6, -1, -6.9355E-09, 3.5739E-09, -1.3976E-07, -279806373.98919946, 3.5162499999999976E-10
DataValue, -24.8, -1, -3.439E-09, -3.3655E-09, -5.1719999999999996E-08, 297132669.7370376, -9.6624999999999821E-11
DataValue, -24, -1, 1.5571999999999998E-09, 3.4193E-09, 5.412E-08, -292457520.5451408, -7.8750000000000051E-11
DataValue, -23.2, -1, -2.6988E-09, -3.4915E-09, -5.306E-08, 286409852.49892592, 3.4650000000000051E-10
DataValue, -22.400000000000002, -1, 1.4894E-09, 3.9737E-09, -4.578E-08, -251654629.18690389, -2.0112499999999991E-10
DataValue, -21.6, -1, 3.9088E-09, -3.8133E-09, 4.482E-08, 262240054.54593137, -1.4271249999999986E-09
DataValue, -20.8, -1, -8.859E-10, 1.6903E-09, -9.112E-08, -591610956.6349169, 2.875874999999997E-09
DataValue, -20, -1, 3.2612E-09, 7.881E-10, -4.422E-08, -1268874508.3111281, -1.6962499999999992E-10
