
SetupTitle, Id-Vgs
PrimitiveTest, I/V Sweep
TestParameter, Context.MainFrame, B1500A
TestParameter, Channel.UnitType, SMU, SMU, SMU
TestParameter, Channel.Unit, SMU1:MP, SMU4:MP, SMU5:MP
TestParameter, Channel.IName, Is, Id, Ig
TestParameter, Channel.VName, Vs, Vds, Vgs
TestParameter, Channel.Mode, V, V, V
TestParameter, Channel.Func, CONST, VAR2, VAR1
TestParameter, Channel.Index, 
TestParameter, Channel.Time, 
TestParameter, Measurement.Port.Unit, SMU1:MP, SMU4:MP, SMU5:MP
TestParameter, Measurement.Port.SeriesResistor, NONE, NONE, NONE
TestParameter, Measurement.Port.Filter, ON, ON, ON
TestParameter, Measurement.Port.OutputVoltageComparison, 0, 0, 0
TestParameter, Measurement.Primary.Locus, Double
TestParameter, Measurement.Primary.Scale, LINEAR
TestParameter, Measurement.Primary.Start, 40
TestParameter, Measurement.Primary.Stop, -40
TestParameter, Measurement.Primary.Step, -0.8
TestParameter, Measurement.Primary.Compliance, 1E-06
TestParameter, Measurement.Primary.PowerCompliance, 0
TestParameter, Measurement.Aborting.Condition, CONTINUE AT ANY
TestParameter, Measurement.PostOutput.Value, START
TestParameter, Measurement.PostOutput.Retention, OFF
TestParameter, Measurement.Secondary.Start, -1
TestParameter, Measurement.Secondary.Count, 1
TestParameter, Measurement.Secondary.Step, -0.5
TestParameter, Measurement.Secondary.Compliance, 0.0005
TestParameter, Measurement.Secondary.PowerCompliance, 0
TestParameter, Measurement.Bias.Source, 0, -1, 40
TestParameter, Measurement.Bias.Compliance, 0.1, 0.0005, 1E-06
TestParameter, Measurement.Monitor.Unit, SMU1:MP, SMU4:MP, SMU5:MP
TestParameter, Measurement.Monitor.Adc, HR ADC, HR ADC, HR ADC
TestParameter, Measurement.Monitor.Measurement, Compliance Side, Compliance Side, Compliance Side
TestParameter, Measurement.Monitor.RangingMode, LIMITED, LIMITED, LIMITED
TestParameter, Measurement.Monitor.RangeBoundary, 1nA, 1nA, 1nA
TestParameter, Measurement.Monitor.RangeRating, BY FULL RANGE, BY FULL RANGE, BY FULL RANGE
TestParameter, Measurement.Monitor.RangeRatingCoeff, 50, 50, 50
TestParameter, Measurement.Timing.Hold, 0
TestParameter, Measurement.Timing.Delay, 0
TestParameter, Measurement.Adc.HighSpeed.Mode, AUTO
TestParameter, Measurement.Adc.HighSpeed.Coeff, 1
TestParameter, Measurement.Adc.HighResolution.AutoZero, OFF
TestParameter, Measurement.Adc.HighResolution.Mode, AUTO
TestParameter, Measurement.Adc.HighResolution.Coeff, 4
TestParameter, Measurement.WaitTime.Source.Coeff, 1
TestParameter, Measurement.WaitTime.Source.Offset, 0
TestParameter, Measurement.WaitTime.Monitor.Coeff, 1
TestParameter, Measurement.WaitTime.Monitor.Offset, 0
TestParameter, Function.User.Name, R, gm
TestParameter, Function.User.Unit, Ohms, S
TestParameter, Function.User.Definition, Vds/Id, delta(Id)/delta(Vgs)
TestParameter, Output.Graph.Enabled, true
TestParameter, Output.Graph.XAxis.Data, Vgs
TestParameter, Output.Graph.XAxis.Scale, Linear
TestParameter, Output.Graph.XAxis.Left, -50
TestParameter, Output.Graph.XAxis.Right, 50
TestParameter, Output.Graph.YAxis.Data, Id, Is, Ig
TestParameter, Output.Graph.YAxis.Scale, Log, Log, Log
TestParameter, Output.Graph.YAxis.Bottom, -1E-13, 1E-13, 1E-11
TestParameter, Output.Graph.YAxis.Top, -2E-05, 2E-05, 1E-07
TestParameter, Output.Graph.YAxis.Group, , , 
TestParameter, Output.List.Data, Vgs, Vds, Id, Is, Ig, R, gm
TestParameter, AutoAnalysis.Interpolation, false
TestParameter, AutoAnalysis.Line1.Enabled, false
TestParameter, AutoAnalysis.Line1.Type, 1
TestParameter, AutoAnalysis.Line1.Fix, True
TestParameter, AutoAnalysis.Line1.YAxis, 0
TestParameter, AutoAnalysis.Line1.Point1.Type, 0
TestParameter, AutoAnalysis.Line1.Point1.XY.X, 
TestParameter, AutoAnalysis.Line1.Point1.XY.Y, 
TestParameter, AutoAnalysis.Line1.Point1.Data.Var, 
TestParameter, AutoAnalysis.Line1.Point1.Data.Condition, 
TestParameter, AutoAnalysis.Line1.Point1.Data.Start, false
TestParameter, AutoAnalysis.Line1.Point1.Data.StartVar, 
TestParameter, AutoAnalysis.Line1.Point1.Data.StartCondition, 
TestParameter, AutoAnalysis.Line1.Point2.Type, 0
TestParameter, AutoAnalysis.Line1.Point2.XY.X, 
TestParameter, AutoAnalysis.Line1.Point2.XY.Y, 
TestParameter, AutoAnalysis.Line1.Point2.Data.Var, 
TestParameter, AutoAnalysis.Line1.Point2.Data.Condition, 
TestParameter, AutoAnalysis.Line1.Point2.Data.Start, false
TestParameter, AutoAnalysis.Line1.Point2.Data.StartVar, 
TestParameter, AutoAnalysis.Line1.Point2.Data.StartCondition, 
TestParameter, AutoAnalysis.Line1.GradientExpr, 0
TestParameter, AutoAnalysis.Line2.Enabled, false
TestParameter, AutoAnalysis.Line2.Type, 1
TestParameter, AutoAnalysis.Line2.Fix, True
TestParameter, AutoAnalysis.Line2.YAxis, 0
TestParameter, AutoAnalysis.Line2.Point1.Type, 0
TestParameter, AutoAnalysis.Line2.Point1.XY.X, 
TestParameter, AutoAnalysis.Line2.Point1.XY.Y, 
TestParameter, AutoAnalysis.Line2.Point1.Data.Var, 
TestParameter, AutoAnalysis.Line2.Point1.Data.Condition, 
TestParameter, AutoAnalysis.Line2.Point1.Data.Start, false
TestParameter, AutoAnalysis.Line2.Point1.Data.StartVar, 
TestParameter, AutoAnalysis.Line2.Point1.Data.StartCondition, 
TestParameter, AutoAnalysis.Line2.Point2.Type, 0
TestParameter, AutoAnalysis.Line2.Point2.XY.X, 
TestParameter, AutoAnalysis.Line2.Point2.XY.Y, 
TestParameter, AutoAnalysis.Line2.Point2.Data.Var, 
TestParameter, AutoAnalysis.Line2.Point2.Data.Condition, 
TestParameter, AutoAnalysis.Line2.Point2.Data.Start, false
TestParameter, AutoAnalysis.Line2.Point2.Data.StartVar, 
TestParameter, AutoAnalysis.Line2.Point2.Data.StartCondition, 
TestParameter, AutoAnalysis.Line2.GradientExpr, 0
TestParameter, AutoAnalysis.Marker.Enabled, false
TestParameter, AutoAnalysis.Marker.Data.Var, 
TestParameter, AutoAnalysis.Marker.Data.Condition, 
TestParameter, AutoAnalysis.Marker.Data.Start, false
TestParameter, AutoAnalysis.Marker.Data.StartVar, 
TestParameter, AutoAnalysis.Marker.Data.StartCondition, 
MetaData, TestRecord.EntryPoint, true
MetaData, TestRecord.RecordTime, 02/20/2018 02:36:32
MetaData, TestRecord.TestTarget, 180207S3_d2_r4_lch100
MetaData, TestRecord.IterationIndex, 55
MetaData, TestRecord.Preservation, true
MetaData, TestRecord.Flag, ?
MetaData, TestRecord.Remarks, 
MetaData, TestRecord.LinkKey, b2f09c61-2236-4096-b476-63e3e23ba232
Dimension1, 202, 202, 202, 202, 202, 202, 202
Dimension2, 1, 1, 1, 1, 1, 1, 1
DataName, Vgs, Vds, Is, Id, Ig, R, gm
DataValue, 40, -1, -1.5036399999999998E-08, -1.9796E-09, 1.6177999999999998E-07, 505152556.07193369, -6.4213750000000236E-09
DataValue, 39.2, -1, -2.3385999999999998E-09, 3.1575E-09, 2.2396E-07, -316706254.94853526, 1.0290624999999991E-09
DataValue, 38.4, -1, -4.1993999999999994E-09, -3.6261E-09, -1.833E-07, 275778384.49022365, 1.1419374999999989E-09
DataValue, 37.6, -1, -1.29476E-08, 1.3304E-09, 1.498E-07, -751653638.00360787, -4.2992500000000153E-09
DataValue, 36.800000000000004, -1, -7.21E-09, 3.2527E-09, 2.5693999999999997E-07, -307436898.57656717, 3.0228124999999973E-09
DataValue, 36, -1, -4.6888E-09, -3.5061E-09, 5.246E-08, 285217192.89238757, 2.5719999999999977E-09
DataValue, 35.2, -1, -2.7973E-09, -8.625E-10, 1.9362E-07, 1159420289.8550725, -5.2056249999999977E-10
DataValue, 34.4, -1, -6.2693E-09, -2.6732E-09, 1.6466E-07, 374083495.43618137, 1.5413124999999987E-09
DataValue, 33.6, -1, 1.3375E-09, -3.3286E-09, -1.7092E-07, 300426605.78020793, -3.7483124999999969E-09
DataValue, 32.8, -1, 3.3076E-09, 3.3241E-09, -1.4628E-07, -300833308.263891, -3.5296874999999968E-09
DataValue, 32, -1, 6.1401E-09, 2.3189E-09, -8.962E-08, -431238949.50191903, -1.7656250000000011E-10
DataValue, 31.2, -1, -4.7471E-09, 3.6066E-09, -4.4839999999999997E-08, -277269450.45194924, -7.2262500000000111E-10
DataValue, 30.400000000000002, -1, -1.1684E-09, 3.4751E-09, 2.16E-07, -287761503.26609308, 3.9901875000000057E-09
DataValue, 29.6, -1, -2.424E-09, -2.7777E-09, 2.3619999999999998E-07, 360010080.2822479, 3.9830624999999959E-09
DataValue, 28.8, -1, -2.1615E-09, -2.8978E-09, 1.4557999999999998E-07, 345089378.14894056, -5.6581249999999959E-10
DataValue, 28, -1, -1.5883E-09, -1.8724E-09, 1.497E-07, 534073915.82995093, 3.1512499999999973E-10
DataValue, 27.2, -1, 3.0172E-09, -3.402E-09, 5.414E-08, 293944738.38918281, 9.3618750000000132E-10
DataValue, 26.400000000000002, -1, 1.7147E-09, -3.3703E-09, -1.4162E-07, 296709491.73664069, -4.3947500000000053E-09
DataValue, 25.6, -1, -1.9419999999999999E-10, 3.6296E-09, 1.4968E-07, -275512453.162883, -4.373374999999996E-09
DataValue, 24.8, -1, 1.1163E-09, 3.6271E-09, 1.814E-07, -275702351.74106038, 3.9076874999999965E-09
DataValue, 24, -1, 1.1982E-09, -2.6227E-09, 8.964E-08, 381286460.517787, 4.3322499999999965E-09
DataValue, 23.2, -1, 5.4312E-09, -3.3045E-09, 4.894E-08, 302617642.60856408, -3.2087500000000042E-09
DataValue, 22.400000000000002, -1, -2.001E-10, 2.5113E-09, -1.1106E-07, -398200135.38804609, 6.74375000000001E-11
DataValue, 21.6, -1, 7.7618E-09, -3.4124E-09, 4.462E-08, 293048880.5532763, 3.2595624999999973E-09
DataValue, 20.8, -1, 3.4626E-09, -2.704E-09, 9.134E-08, 369822485.20710057, 4.4749999999999988E-11
DataValue, 20, -1, 5.6444E-09, -3.484E-09, -1.3786E-07, 287026406.4293915, -3.7601874999999972E-09
DataValue, 19.2, -1, 7.798E-10, 3.3123E-09, 2.2375999999999999E-07, -301905020.68049395, -3.6093750000000054E-10
DataValue, 18.400000000000002, -1, 3.5999E-09, -2.9065E-09, 2.241E-07, 344056425.25374162, -1.9393750000000029E-10
DataValue, 17.6, -1, 1.0974E-09, 3.6226E-09, 1.8766E-07, -276044829.68034011, -4.0811874999999964E-09
DataValue, 16.8, -1, 1.7929E-09, 3.6234E-09, 3.358E-08, -275983882.54125959, 1.4923124999999987E-09
DataValue, 16, -1, 6.3561E-09, 1.2349E-09, -5.176E-08, -809782168.5966475, 4.0551875000000008E-09
DataValue, 15.200000000000001, -1, -2.4375E-09, -2.8649E-09, 1.2028E-07, 349052322.94320917, 2.8766875000000008E-09
DataValue, 14.4, -1, 5.5521E-09, -3.3678E-09, 5.316E-08, 296929746.42199659, -2.8628124999999974E-09
DataValue, 13.6, -1, 1.2658E-09, 1.7156E-09, 9.452E-08, -582886453.71881557, -1.1509375000000002E-09
DataValue, 12.8, -1, -1.1884E-09, -1.5263E-09, 5.31E-08, 655179191.50887764, 3.2913750000000007E-09
DataValue, 12, -1, 2.4853999999999997E-09, -3.5506E-09, -1.5332E-07, 281642539.2891342, -1.3715E-09
DataValue, 11.200000000000001, -1, 1.2525999999999999E-08, 6.681E-10, 1.018E-08, -1496781918.87442, -1.0971875000000005E-09
DataValue, 10.4, -1, 6.2817999999999995E-09, -1.7951E-09, 5.248E-08, 557072029.41340315, 2.6056874999999975E-09
DataValue, 9.6, -1, 3.8506E-09, -3.501E-09, -2.85E-08, 285632676.3781777, 1.0903125000000003E-09
DataValue, 8.8, -1, 9.9623999999999986E-09, -3.5396E-09, 3.898E-08, 282517798.62131315, 2.2500000000001736E-12
DataValue, 8, -1, 5.1988E-09, -3.5046E-09, 5.246E-08, 285339268.39011586, -4.5413124999999986E-09
DataValue, 7.2, -1, 6.0997999999999991E-09, 3.7265E-09, -5.026E-08, -268348316.11431637, -4.1445625E-09
DataValue, 6.4, -1, -1.3786E-09, 3.1267E-09, -8.972E-08, -319826014.64803147, 3.391187500000001E-09
DataValue, 5.6000000000000005, -1, 9.2302E-09, -1.6994E-09, 5.278E-08, 588442979.8752501, 2.7945624999999995E-09
DataValue, 4.8, -1, 5.3027999999999995E-09, -1.3446E-09, 4.772E-08, 743715603.153354, 6.2118749999999993E-10
DataValue, 4, -1, 4.689E-09, -2.6933E-09, 5.2659999999999996E-08, 371291723.9074741, -2.406250000000002E-11
DataValue, 3.2, -1, 4.67E-09, -1.3061E-09, 4.528E-08, 765638159.40586472, 5.3856249999999971E-10
DataValue, 2.4, -1, 3.6717999999999997E-09, -3.555E-09, 4.202E-08, 281293952.18002814, -3.0099375E-09
DataValue, 1.6, -1, -4.3279999999999994E-10, 3.5098E-09, -5.19E-08, -284916519.45979828, -4.4943125E-09
DataValue, 0.8, -1, -3.268E-10, 3.6359E-09, -5.5279999999999996E-08, -275035066.97103882, 4.3155E-09
DataValue, 0, -1, 1.0948199999999999E-08, -3.395E-09, 4.29E-08, 294550810.01472753, 4.4946874999999995E-09
DataValue, -0.8, -1, 8.628E-10, -3.5556E-09, -1.6149999999999998E-07, 281246484.41894478, -2.5406250000000002E-09
DataValue, -1.6, -1, 1.3933399999999998E-08, 6.7E-10, 5.71E-08, -1492537313.4328358, -9.0187500000000018E-11
DataValue, -2.4, -1, 4.0263E-09, -3.4113E-09, 4.684E-08, 293143376.42540967, -8.1693750000000011E-10
DataValue, -3.2, -1, 2.9186E-09, 1.9771E-09, 8.486E-08, -505791310.5052855, -8.1125000000000069E-11
DataValue, -4, -1, 7.5303999999999987E-09, -3.2815E-09, -1.979E-07, 304738686.57626086, 6.3693750000000021E-10
DataValue, -4.8, -1, 1.41098E-08, 9.58E-10, -1.8868E-07, -1043841336.1169102, -3.8558124999999989E-09
DataValue, -5.6000000000000005, -1, -1.013E-10, 2.8878E-09, -8.692E-08, -346284368.72359586, 1.5934374999999994E-09
DataValue, -6.4, -1, 1.2141599999999999E-08, -1.5915E-09, 5.2099999999999997E-08, 628338045.86867738, 2.7225625000000005E-09
DataValue, -7.2, -1, 5.9511999999999991E-09, -1.4683E-09, 5.034E-08, 681059728.93822789, 1.0943750000000004E-09
DataValue, -8, -1, 4.9649E-09, -3.3425E-09, 4.702E-08, 299177262.52804786, -3.1525624999999989E-09
DataValue, -8.8, -1, 7.7768E-09, 3.5758E-09, -4.8E-08, -279657698.97645283, -2.6247500000000009E-09
DataValue, -9.6, -1, 5.358E-10, 8.571E-10, -5.298E-08, -1166725002.9168127, 4.4700625000000014E-09
DataValue, -10.4, -1, -1.3909E-09, -3.5763E-09, 5.09E-08, 279618600.22928727, -3.253124999999998E-10
DataValue, -11.200000000000001, -1, 2.6438E-09, 1.3776E-09, 1.4468E-07, -725900116.14401853, -6.1500000000000007E-11
DataValue, -12, -1, 6.5243999999999995E-09, -3.4779E-09, 4.222E-08, 287529831.21998906, 1.6360625000000004E-09
DataValue, -12.8, -1, 5.314E-09, -1.2401E-09, 4.462E-08, 806386581.72728, -3.9753125E-09
DataValue, -13.6, -1, 3.8781999999999993E-09, 2.8825999999999995E-09, 8.732E-08, -346909040.4495942, 1.3073750000000002E-09
DataValue, -14.4, -1, 8.2254E-09, -3.3319E-09, 4.442E-08, 300129055.49386233, 3.8269374999999967E-09
DataValue, -15.200000000000001, -1, 6.4399999999999993E-09, -3.2405E-09, 5.8279999999999996E-08, 308594352.72334516, -9.5756250000000033E-10
DataValue, -16, -1, 7.1925999999999993E-09, -1.7998E-09, 5.0739999999999996E-08, 555617290.81009006, -1.0485000000000003E-09
DataValue, -16.8, -1, 6.692599999999999E-09, -1.5629E-09, 5.118E-08, 639836201.93230534, -2.7162499999999972E-10
DataValue, -17.6, -1, 6.0605999999999995E-09, -1.3652E-09, 4.534E-08, 732493407.559332, 6.5574999999999942E-10
DataValue, -18.400000000000002, -1, 5.5868E-09, -2.6121E-09, 4.6479999999999997E-08, 382833735.3087554, -4.0125000000000081E-11
DataValue, -19.2, -1, 5.0172E-09, -1.301E-09, 4.486E-08, 768639508.07071483, 5.9375000000000066E-10
DataValue, -20, -1, 3.9254E-09, -3.5621E-09, 3.642E-08, 280733275.31512308, 1.1812499999999994E-10
DataValue, -20.8, -1, 5.0526E-09, -1.49E-09, 4.918E-08, 671140939.59731543, -5.5974999999999954E-10
DataValue, -21.6, -1, 5.9743999999999996E-09, -2.6665E-09, 4.948E-08, 375023438.9649353, 7.1449999999999934E-10
DataValue, -22.400000000000002, -1, 5.6402E-09, -2.6332E-09, 4.858E-08, 379766064.10451162, -9.1037500000000111E-10
DataValue, -23.2, -1, 5.7432E-09, -1.2099E-09, 4.9239999999999996E-08, 826514587.9824779, 5.7087500000000088E-10
DataValue, -24, -1, 3.9997999999999994E-09, -3.5466E-09, 4.3759999999999996E-08, 281960187.22156429, 9.486249999999993E-10
DataValue, -24.8, -1, 5.8731999999999991E-09, -2.7277E-09, 4.904E-08, 366609231.22044212, -1.4091249999999987E-09
DataValue, -25.6, -1, 6.1793999999999996E-09, -1.292E-09, 4.57E-08, 773993808.04953551, -2.1173749999999984E-09
DataValue, -26.400000000000002, -1, 3.7845999999999995E-09, 6.601E-10, 1.4019999999999999E-08, -1514921981.5179517, 3.6512500000000054E-10
DataValue, -27.2, -1, 7.5358E-09, -1.8762E-09, 5.668E-08, 532992218.31361258, 1.3770625000000018E-09
DataValue, -28, -1, 5.6601999999999991E-09, -1.5432E-09, 5.746E-08, 648004147.22654223, 5.7349999999999942E-10
DataValue, -28.8, -1, 5.862E-09, -2.7938E-09, 5.32E-08, 357935428.44870788, -1.2231249999999993E-10
DataValue, -29.6, -1, 8.6962E-09, -1.3475E-09, 4.872E-08, 742115027.82931352, -1.8156249999999996E-10
DataValue, -30.400000000000002, -1, 7.3329999999999994E-09, -2.5033E-09, 4.448E-08, 399472696.04122561, 1.3248125000000021E-09
DataValue, -31.2, -1, 8.6077999999999992E-09, -3.4672E-09, 4.52E-08, 288417166.58975542, 5.428125000000007E-10
DataValue, -32, -1, 1.18994E-08, -3.3718E-09, 5.502E-08, 296577495.69962633, 5.2624999999999928E-11
DataValue, -32.8, -1, 5.7514E-09, -3.5514E-09, 2.192E-07, 281579095.56794506, 1.2224999999999991E-10
DataValue, -33.6, -1, 5.7247999999999991E-09, -3.5674E-09, 1.7052E-07, 280316196.66984361, -4.5399999999999955E-09
DataValue, -34.4, -1, 1.0975199999999998E-08, 3.7126E-09, 1.6924E-07, -269353014.06022733, -3.5374999999999962E-11
DataValue, -35.2, -1, 7.7156E-09, -3.5108E-09, -6.59E-08, 284835365.15893817, 2.9036249999999974E-09
DataValue, -36, -1, -1.7109E-09, -9.3319999999999984E-10, 9.17E-08, 1071581654.5220748, -1.3767499999999988E-09
DataValue, -36.800000000000004, -1, 5.9072E-09, -1.308E-09, -5.314E-08, 764525993.883792, -1.1857499999999987E-09
DataValue, -37.6, -1, 5.0457999999999993E-09, 9.64E-10, 8.26E-08, -1037344398.3402489, 9.1293750000000329E-10
DataValue, -38.4, -1, -2.863E-10, -2.7687E-09, 1.3226E-07, 361180337.34243506, 2.8523749999999972E-09
DataValue, -39.2, -1, 5.6965999999999995E-09, -3.5998E-09, 7.6979999999999992E-08, 277793210.73392969, 4.0493749999999951E-10
DataValue, -40, -1, 7.3329999999999994E-09, -3.4166E-09, 2.3801999999999998E-07, 292688637.82707953, -3.2250000000000186E-11
DataValue, -40, -1, 6.4821E-09, -3.574E-09, 6.8879999999999992E-08, 279798545.04756576, 8.8785000000000322E-09
DataValue, -39.2, -1, -3.536E-10, 3.6862E-09, 2.8739999999999998E-08, -271282079.10585427, 4.2196874999999954E-09
DataValue, -38.4, -1, -3.5619E-09, 3.1775E-09, 2.044E-08, -314712824.54760033, -2.9963749999999971E-09
DataValue, -37.6, -1, -3.5638E-09, -1.1079999999999999E-09, 8.75E-08, 902527075.81227446, 2.39062500000001E-10
DataValue, -36.800000000000004, -1, -1.1918E-09, 3.56E-09, 1.9672E-07, -280898876.40449435, 2.899624999999997E-09
DataValue, -36, -1, 1.6512E-09, 3.5314E-09, 2.126E-08, -283173812.08585829, 1.7124999999999808E-11
DataValue, -35.2, -1, -5.8344E-09, 3.5874E-09, 2.09E-08, -278753414.72933042, -4.1199999999999957E-09
DataValue, -34.4, -1, -3.9794E-09, -3.0605999999999995E-09, 1.0884E-07, 326733320.26400059, -7.7062499999999792E-11
DataValue, -33.6, -1, -3.6257E-09, 3.4641E-09, -5.9259999999999996E-08, -288675269.1896885, -1.5125000000000025E-10
DataValue, -32.8, -1, 5.8875E-09, -3.3026E-09, 4.28E-08, 302791739.84133708, -1.3688124999999989E-09
DataValue, -32, -1, -1.1E-11, 1.274E-09, -9.182E-08, -784929356.3579278, 4.2075000000000056E-09
DataValue, -31.2, -1, 1.4283E-09, 3.4294E-09, 4.236E-08, -291596197.58558345, 1.3035000000000018E-09
DataValue, -30.400000000000002, -1, -4.2009E-09, 3.3596E-09, -5.25E-08, -297654482.67650914, -4.3946875000000061E-09
DataValue, -29.6, -1, 3.5778E-09, -3.6020999999999998E-09, -2.5E-08, 277615835.20724022, -4.3429374999999962E-09
DataValue, -28.8, -1, 3.4628E-09, -3.5891E-09, -2.414E-08, 278621381.404809, 1.6124999999999763E-11
DataValue, -28, -1, 3.111E-09, -3.5763E-09, -2.45E-08, 279618600.22928727, 3.8062500000000011E-11
DataValue, -27.2, -1, 1.3811E-09, -3.5282E-09, -3.47E-08, 283430644.52128565, 3.7396875000000053E-09
DataValue, -26.400000000000002, -1, -1.8747999999999998E-09, 2.4072E-09, -1.3632E-07, -415420405.45031571, 4.0511250000000053E-09
DataValue, -25.6, -1, 2.86E-11, 2.9536E-09, -1.3848E-07, -338569880.823402, 7.1181249999999929E-10
DataValue, -24.8, -1, -2.7431999999999998E-09, 3.5461E-09, -7.336E-08, -281999943.60001129, -3.897062499999996E-09
DataValue, -24, -1, 4.2748E-09, -3.2817E-09, 4.422E-08, 304720114.57476306, -1.3983749999999985E-09
DataValue, -23.2, -1, -1.3952E-09, 1.3087E-09, -8.81E-08, -764117062.73401082, 2.478187500000003E-09
DataValue, -22.400000000000002, -1, 2.5466E-09, 6.834E-10, -4.028E-08, -1463271875.9145448, -3.6874999999999727E-12
DataValue, -21.6, -1, 4.4187E-09, 1.3028E-09, -8.874E-08, -767577525.33005834, 5.562499999999995E-11
