
SetupTitle, Id-Vgs
PrimitiveTest, I/V Sweep
TestParameter, Context.MainFrame, B1500A
TestParameter, Channel.UnitType, SMU, SMU, SMU
TestParameter, Channel.Unit, SMU1:MP, SMU4:MP, SMU5:MP
TestParameter, Channel.IName, Is, Id, Ig
TestParameter, Channel.VName, Vs, Vds, Vgs
TestParameter, Channel.Mode, V, V, V
TestParameter, Channel.Func, CONST, VAR2, VAR1
TestParameter, Channel.Index, 
TestParameter, Channel.Time, 
TestParameter, Measurement.Port.Unit, SMU1:MP, SMU4:MP, SMU5:MP
TestParameter, Measurement.Port.SeriesResistor, NONE, NONE, NONE
TestParameter, Measurement.Port.Filter, ON, ON, ON
TestParameter, Measurement.Port.OutputVoltageComparison, 0, 0, 0
TestParameter, Measurement.Primary.Locus, Double
TestParameter, Measurement.Primary.Scale, LINEAR
TestParameter, Measurement.Primary.Start, 40
TestParameter, Measurement.Primary.Stop, -40
TestParameter, Measurement.Primary.Step, -0.8
TestParameter, Measurement.Primary.Compliance, 1E-06
TestParameter, Measurement.Primary.PowerCompliance, 0
TestParameter, Measurement.Aborting.Condition, CONTINUE AT ANY
TestParameter, Measurement.PostOutput.Value, START
TestParameter, Measurement.PostOutput.Retention, OFF
TestParameter, Measurement.Secondary.Start, -1
TestParameter, Measurement.Secondary.Count, 1
TestParameter, Measurement.Secondary.Step, -0.5
TestParameter, Measurement.Secondary.Compliance, 0.0005
TestParameter, Measurement.Secondary.PowerCompliance, 0
TestParameter, Measurement.Bias.Source, 0, -1, 40
TestParameter, Measurement.Bias.Compliance, 0.1, 0.0005, 1E-06
TestParameter, Measurement.Monitor.Unit, SMU1:MP, SMU4:MP, SMU5:MP
TestParameter, Measurement.Monitor.Adc, HR ADC, HR ADC, HR ADC
TestParameter, Measurement.Monitor.Measurement, Compliance Side, Compliance Side, Compliance Side
TestParameter, Measurement.Monitor.RangingMode, LIMITED, LIMITED, LIMITED
TestParameter, Measurement.Monitor.RangeBoundary, 1nA, 1nA, 1nA
TestParameter, Measurement.Monitor.RangeRating, BY FULL RANGE, BY FULL RANGE, BY FULL RANGE
TestParameter, Measurement.Monitor.RangeRatingCoeff, 50, 50, 50
TestParameter, Measurement.Timing.Hold, 0
TestParameter, Measurement.Timing.Delay, 0
TestParameter, Measurement.Adc.HighSpeed.Mode, AUTO
TestParameter, Measurement.Adc.HighSpeed.Coeff, 1
TestParameter, Measurement.Adc.HighResolution.AutoZero, OFF
TestParameter, Measurement.Adc.HighResolution.Mode, AUTO
TestParameter, Measurement.Adc.HighResolution.Coeff, 4
TestParameter, Measurement.WaitTime.Source.Coeff, 1
TestParameter, Measurement.WaitTime.Source.Offset, 0
TestParameter, Measurement.WaitTime.Monitor.Coeff, 1
TestParameter, Measurement.WaitTime.Monitor.Offset, 0
TestParameter, Function.User.Name, R, gm
TestParameter, Function.User.Unit, Ohms, S
TestParameter, Function.User.Definition, Vds/Id, delta(Id)/delta(Vgs)
TestParameter, Output.Graph.Enabled, true
TestParameter, Output.Graph.XAxis.Data, Vgs
TestParameter, Output.Graph.XAxis.Scale, Linear
TestParameter, Output.Graph.XAxis.Left, -50
TestParameter, Output.Graph.XAxis.Right, 50
TestParameter, Output.Graph.YAxis.Data, Id, Is, Ig
TestParameter, Output.Graph.YAxis.Scale, Log, Log, Log
TestParameter, Output.Graph.YAxis.Bottom, -1E-13, 1E-13, 1E-11
TestParameter, Output.Graph.YAxis.Top, -2E-05, 2E-05, 1E-07
TestParameter, Output.Graph.YAxis.Group, , , 
TestParameter, Output.List.Data, Vgs, Vds, Id, Is, Ig, R, gm
TestParameter, AutoAnalysis.Interpolation, false
TestParameter, AutoAnalysis.Line1.Enabled, false
TestParameter, AutoAnalysis.Line1.Type, 1
TestParameter, AutoAnalysis.Line1.Fix, True
TestParameter, AutoAnalysis.Line1.YAxis, 0
TestParameter, AutoAnalysis.Line1.Point1.Type, 0
TestParameter, AutoAnalysis.Line1.Point1.XY.X, 
TestParameter, AutoAnalysis.Line1.Point1.XY.Y, 
TestParameter, AutoAnalysis.Line1.Point1.Data.Var, 
TestParameter, AutoAnalysis.Line1.Point1.Data.Condition, 
TestParameter, AutoAnalysis.Line1.Point1.Data.Start, false
TestParameter, AutoAnalysis.Line1.Point1.Data.StartVar, 
TestParameter, AutoAnalysis.Line1.Point1.Data.StartCondition, 
TestParameter, AutoAnalysis.Line1.Point2.Type, 0
TestParameter, AutoAnalysis.Line1.Point2.XY.X, 
TestParameter, AutoAnalysis.Line1.Point2.XY.Y, 
TestParameter, AutoAnalysis.Line1.Point2.Data.Var, 
TestParameter, AutoAnalysis.Line1.Point2.Data.Condition, 
TestParameter, AutoAnalysis.Line1.Point2.Data.Start, false
TestParameter, AutoAnalysis.Line1.Point2.Data.StartVar, 
TestParameter, AutoAnalysis.Line1.Point2.Data.StartCondition, 
TestParameter, AutoAnalysis.Line1.GradientExpr, 0
TestParameter, AutoAnalysis.Line2.Enabled, false
TestParameter, AutoAnalysis.Line2.Type, 1
TestParameter, AutoAnalysis.Line2.Fix, True
TestParameter, AutoAnalysis.Line2.YAxis, 0
TestParameter, AutoAnalysis.Line2.Point1.Type, 0
TestParameter, AutoAnalysis.Line2.Point1.XY.X, 
TestParameter, AutoAnalysis.Line2.Point1.XY.Y, 
TestParameter, AutoAnalysis.Line2.Point1.Data.Var, 
TestParameter, AutoAnalysis.Line2.Point1.Data.Condition, 
TestParameter, AutoAnalysis.Line2.Point1.Data.Start, false
TestParameter, AutoAnalysis.Line2.Point1.Data.StartVar, 
TestParameter, AutoAnalysis.Line2.Point1.Data.StartCondition, 
TestParameter, AutoAnalysis.Line2.Point2.Type, 0
TestParameter, AutoAnalysis.Line2.Point2.XY.X, 
TestParameter, AutoAnalysis.Line2.Point2.XY.Y, 
TestParameter, AutoAnalysis.Line2.Point2.Data.Var, 
TestParameter, AutoAnalysis.Line2.Point2.Data.Condition, 
TestParameter, AutoAnalysis.Line2.Point2.Data.Start, false
TestParameter, AutoAnalysis.Line2.Point2.Data.StartVar, 
TestParameter, AutoAnalysis.Line2.Point2.Data.StartCondition, 
TestParameter, AutoAnalysis.Line2.GradientExpr, 0
TestParameter, AutoAnalysis.Marker.Enabled, false
TestParameter, AutoAnalysis.Marker.Data.Var, 
TestParameter, AutoAnalysis.Marker.Data.Condition, 
TestParameter, AutoAnalysis.Marker.Data.Start, false
TestParameter, AutoAnalysis.Marker.Data.StartVar, 
TestParameter, AutoAnalysis.Marker.Data.StartCondition, 
MetaData, TestRecord.EntryPoint, true
MetaData, TestRecord.RecordTime, 02/20/2018 01:50:31
MetaData, TestRecord.TestTarget, 180207S1_d2_r2_lch100
MetaData, TestRecord.IterationIndex, 18
MetaData, TestRecord.Preservation, true
MetaData, TestRecord.Flag, 
MetaData, TestRecord.Remarks, 
MetaData, TestRecord.LinkKey, d8bcb1ac-9126-4cff-bc8f-ae1bdfc9ee1d
Dimension1, 202, 202, 202, 202, 202, 202, 202
Dimension2, 1, 1, 1, 1, 1, 1, 1
DataName, Vgs, Vds, Is, Id, Ig, R, gm
DataValue, 40, -1, -3.5072E-09, -1.8943399999999998E-08, -1.421E-07, 52788834.105809942, -7.9645000000000264E-09
DataValue, 39.2, -1, -1.5249E-09, -1.2571799999999999E-08, 4.944E-08, 79543104.408278853, -6.1774999999999944E-09
DataValue, 38.4, -1, -3.5706E-09, -9.0593999999999987E-09, 1.5444E-07, 110382586.04322584, -3.4236249999999964E-09
DataValue, 37.6, -1, 5.3673E-09, -7.094E-09, 1.521E-07, 140964195.094446, -3.4788750000000119E-09
DataValue, 36.800000000000004, -1, 4.1321E-09, -3.4931999999999995E-09, -6.722E-08, 286270468.33848625, -8.1249999999999931E-10
DataValue, 36, -1, 3.4069999999999995E-09, -5.794E-09, 2.805E-07, 172592336.90024164, 2.8162500000000031E-10
DataValue, 35.2, -1, -1.8827E-09, -3.9438E-09, 1.5022E-07, 253562553.88204268, -4.8214374999999962E-09
DataValue, 34.4, -1, 1.1198E-09, 1.9203E-09, 2.336E-08, -520751965.838671, -3.9817499999999969E-09
DataValue, 33.6, -1, -4.4042E-09, 2.427E-09, 3.084E-08, -412031314.37989289, 3.355874999999997E-09
DataValue, 32.8, -1, 1.1555999999999998E-09, -3.4491E-09, 1.578E-07, 289930706.56113189, 3.0306874999999971E-09
DataValue, 32, -1, -1.183E-09, -2.4221E-09, -1.0152E-07, 412864869.32826883, -5.087500000000016E-11
DataValue, 31.2, -1, -3.7513E-09, -3.3677E-09, 1.2545999999999999E-07, 296938563.41123021, -1.6300000000000022E-09
DataValue, 30.400000000000002, -1, 3.4425E-09, 1.859E-10, -2.24E-08, -5379236148.466918, -4.5062499999999922E-11
DataValue, 29.6, -1, -3.2084E-09, -3.2956E-09, -5.376E-08, 303434882.8741352, 1.9448124999999983E-09
DataValue, 28.8, -1, -7.19E-11, -2.9258E-09, 1.1592E-07, 341786861.71303576, -2.4367499999999978E-09
DataValue, 28, -1, 3.2685E-09, 6.032E-10, -1.038E-08, -1657824933.6870024, 4.0018749999999961E-10
DataValue, 27.2, -1, -1.1169E-09, -3.5661E-09, 5.4159999999999997E-08, 280418384.2292701, -1.5489375000000021E-09
DataValue, 26.400000000000002, -1, -5.5667E-09, 3.0815E-09, -1.0604E-07, -324517280.545189, -4.3402500000000056E-09
DataValue, 25.6, -1, 5.8422E-09, 3.3783E-09, -5.052E-08, -296006867.35932273, 3.4735624999999972E-09
DataValue, 24.8, -1, 6.52E-11, -2.4762E-09, 1.2062E-07, 403844600.59769, 4.2321249999999963E-09
DataValue, 24, -1, 3.619E-10, -3.3930999999999998E-09, -4.472E-08, 294715746.66234416, 3.2537499999999946E-10
DataValue, 23.2, -1, 1.1983E-09, -2.9968E-09, -4.552E-08, 333689268.55312335, -1.6575000000000015E-10
DataValue, 22.400000000000002, -1, 6.1991E-09, -3.1279E-09, -2.362E-08, 319703315.32337993, -5.5749999999999853E-11
DataValue, 21.6, -1, 4.5496E-09, -2.9076E-09, -3.184E-08, 343926262.2093823, -1.5949999999999994E-10
DataValue, 20.8, -1, 1.4342999999999999E-09, -2.8727E-09, -4.858E-08, 348104570.61301219, -1.0769374999999992E-09
DataValue, 20, -1, 8.321E-10, -1.1845E-09, 1.4162E-07, 844238075.13718867, 8.7749999999999955E-11
DataValue, 19.2, -1, -1.156E-09, -3.0131E-09, -1.42E-07, 331884106.07016033, 1.0679375000000014E-09
DataValue, 18.400000000000002, -1, -3.0152E-09, -2.8932E-09, -4.4179999999999996E-08, 345638047.83630586, -2.1600000000000011E-10
DataValue, 17.6, -1, 1.271E-09, -2.6675E-09, -4.9239999999999996E-08, 374882849.10965323, -2.246874999999997E-10
DataValue, 16.8, -1, 1.042E-09, -2.5337E-09, -4.664E-08, 394679717.40932232, 2.7749999999999956E-11
DataValue, 16, -1, 6.1608E-09, -2.7119E-09, -2.464E-08, 368745160.2197721, -4.3056250000000008E-10
DataValue, 15.200000000000001, -1, 1.191E-10, -1.8448E-09, 1.0558E-07, 542064180.39895916, -3.0875000000000171E-11
DataValue, 14.4, -1, -3.3695999999999996E-09, -2.6625E-09, -1.4736E-07, 375586854.46009392, -2.909124999999997E-09
DataValue, 13.6, -1, -2.0197E-09, 2.8097999999999995E-09, -1.4674E-07, -355897216.883764, -6.4312499999999836E-11
DataValue, 12.8, -1, 3.5911999999999998E-09, -2.5596E-09, 1.6994E-07, 390686044.69448352, 1.6395E-09
DataValue, 12, -1, 1.2389E-09, 1.866E-10, 4.904E-08, -5359056806.0021439, -1.4980000000000004E-09
DataValue, 11.200000000000001, -1, -3.9926E-09, -1.628E-10, -1.42E-07, 6142506142.5061426, 1.5785000000000003E-09
DataValue, 10.4, -1, -3.5686E-09, -2.339E-09, -4.7039999999999996E-08, 427533133.81787091, 8.8812499999999914E-10
DataValue, 9.6, -1, 1.293E-10, -1.5838E-09, 1.1338E-07, 631392852.63290823, 3.1562500000000124E-11
DataValue, 8.8, -1, 3.991E-10, -2.3895E-09, -3.662E-08, 418497593.63883656, -4.3562500000000056E-11
DataValue, 8, -1, 1.21E-11, -1.5141E-09, 1.1282E-07, 660458358.1005218, 1.5368749999999979E-10
DataValue, 7.2, -1, 2.1719E-09, -2.6354E-09, -1.6357999999999999E-07, 379449039.99392885, -2.681875E-10
DataValue, 6.4, -1, 1.1671999999999999E-09, -1.085E-09, 1.5992E-07, 921658986.17511511, -2.7481249999999982E-10
DataValue, 5.6000000000000005, -1, -3.3289999999999996E-09, -2.1957E-09, -4.2E-08, 455435624.17452288, -3.245374999999999E-09
DataValue, 4.8, -1, 2.7263E-09, 4.1076E-09, -4.9519999999999996E-08, -243451163.69656247, -3.1135624999999989E-09
DataValue, 4, -1, -3.202E-10, 2.7859999999999997E-09, 1.5622E-07, -358937544.86719316, -7.4387499999999987E-10
DataValue, 3.2, -1, -2.9047999999999997E-09, 5.2978E-09, -2.2284E-07, -188757597.49329913, 5.4287499999999974E-10
DataValue, 2.4, -1, -3.793E-10, 1.9174E-09, -1.404E-08, -521539584.85449046, 1.6524999999999996E-09
DataValue, 1.6, -1, 5.027E-10, 2.6538E-09, -9.308E-08, -376818147.56198657, -2.5562500000000089E-11
DataValue, 0.8, -1, -3.056E-10, 1.9583E-09, -2.466E-08, -510646989.73599547, 2.9014375E-09
DataValue, 0, -1, -1.071E-09, -1.9885E-09, -5.024E-08, 502891626.85441291, 2.297375E-09
DataValue, -0.8, -1, 1.1725E-09, -1.7175E-09, -4.892E-08, 582241630.27656484, -8.19125E-10
DataValue, -1.6, -1, -2.535E-10, -6.779E-10, 1.6048E-07, 1475143826.5230861, -3.0410000000000006E-09
DataValue, -2.4, -1, 1.2149E-09, 3.1481E-09, 1.1322E-07, -317651917.02931929, -1.0136874999999999E-09
DataValue, -3.2, -1, -3.2814E-09, 9.44E-10, -1.9446E-07, -1059322033.8983051, 3.0050624999999995E-09
DataValue, -4, -1, -1.0764E-09, -1.66E-09, -4.756E-08, 602409638.55421686, 5.2025000000000014E-10
DataValue, -4.8, -1, 6.1729E-09, 1.116E-10, -9.796E-08, -8960573476.7025089, -3.778437499999998E-09
DataValue, -5.6000000000000005, -1, -9.02E-11, 4.3855E-09, -1.6504E-07, -228024170.56207958, -3.4270624999999987E-09
DataValue, -6.4, -1, 5.9653E-09, 5.5949E-09, 1.9539999999999998E-08, -178734204.36468926, -5.08625E-10
DataValue, -7.2, -1, -5.9294E-09, 5.1993E-09, -1.4919999999999999E-07, -192333583.36699173, 1.2305625000000005E-09
DataValue, -8, -1, -2.2667E-09, 3.6259999999999997E-09, -1.4882E-07, -275785990.07170439, 1.9293749999999994E-10
DataValue, -8.8, -1, -1.0616E-09, 4.8906E-09, -4.792E-08, -204473888.684415, 2.4559375000000005E-09
DataValue, -9.6, -1, 5.9042E-09, -3.035E-10, -7.888E-08, 3294892915.9802308, 6.57125E-10
DataValue, -10.4, -1, 1.546E-09, 3.8392E-09, -1.44E-07, -260470931.44405085, -3.6631874999999968E-09
DataValue, -11.200000000000001, -1, 6.1972E-09, 5.5576E-09, 1.6388E-07, -179933784.36735281, 2.6818749999999986E-10
DataValue, -12, -1, 1.2201E-09, 3.4101E-09, 1.1036E-07, -293246532.35975486, 4.5026875000000012E-09
DataValue, -12.8, -1, -3.2598E-09, -1.6467E-09, 1.1388E-07, 607275156.37335277, 2.5830000000000007E-09
DataValue, -13.6, -1, -3.59E-11, -7.227E-10, 1.0782E-07, 1383700013.8370001, -5.9812500000000007E-11
DataValue, -14.4, -1, 4.489E-10, -1.551E-09, -4.856E-08, 644745325.59638941, -5.3062499999999946E-11
DataValue, -15.200000000000001, -1, 5.2086E-09, -6.378E-10, 4.358E-08, 1567889620.5707119, -4.0439375000000004E-09
DataValue, -16, -1, -4.9828E-09, 4.9193E-09, -5.0079999999999996E-08, -203280954.60736284, -9.0125000000000012E-11
DataValue, -16.8, -1, 5.2885E-09, -4.936E-10, 4.2E-08, 2025931928.687196, 2.9231249999999971E-10
DataValue, -17.6, -1, -5.3279E-09, 4.4516E-09, -1.549E-07, -224638332.28502113, -8.3631249999999933E-10
DataValue, -18.400000000000002, -1, 1.2435E-09, 8.445E-10, -1.4532E-07, -1184132622.8537595, -3.137499999999984E-11
DataValue, -19.2, -1, 3.2594E-09, 4.5017999999999995E-09, -1.4112E-07, -222133368.87467238, -2.0379375000000022E-09
DataValue, -20, -1, -1.0517999999999998E-09, 4.1051999999999994E-09, 5.886E-08, -243593491.18191564, -4.0162499999999979E-10
DataValue, -20.8, -1, -3.1734E-09, 5.1444E-09, -1.4668E-07, -194386128.60586271, -1.0069374999999997E-09
DataValue, -21.6, -1, 6.2014E-09, 5.7163E-09, 1.55E-07, -174938334.2371814, 4.0505624999999964E-09
DataValue, -22.400000000000002, -1, -1.2417E-09, -1.3365E-09, -2.8198E-07, 748222970.44519258, 2.196875000000002E-10
DataValue, -23.2, -1, -5.962E-09, 5.3648E-09, -1.4882E-07, -186400238.59230539, -4.4457500000000061E-09
DataValue, -24, -1, 6.1479E-09, 5.7767E-09, 1.5324E-07, -173109214.60349336, 7.1437499999999982E-10
DataValue, -24.8, -1, 1.2222E-09, 4.2218E-09, -4.446E-08, -236865791.84234214, 4.306249999999996E-09
DataValue, -25.6, -1, 3.1537999999999996E-09, -1.1133E-09, -3.89E-08, 898230485.94269288, -7.5581249999999987E-10
DataValue, -26.400000000000002, -1, -5.9607E-09, 5.4311E-09, -1.4882E-07, -184124762.93936771, -4.3658750000000057E-09
DataValue, -27.2, -1, 9.7E-10, 5.8721E-09, 1.4724E-07, -170296827.3701061, 3.9830000000000058E-09
DataValue, -28, -1, -7.422E-10, -9.417E-10, -4.786E-08, 1061909312.9446746, 3.9994374999999963E-09
DataValue, -28.8, -1, 2.557E-10, -5.27E-10, 1.1278E-07, 1897533206.8311193, -3.8502499999999959E-09
DataValue, -29.6, -1, 2.9608E-09, 5.2187E-09, -4.838E-08, -191618602.33391458, -7.662499999999994E-10
DataValue, -30.400000000000002, -1, 6.2475E-09, 6.99E-10, -9.934E-08, -1430615164.5207441, 1.4105625000000018E-09
DataValue, -31.2, -1, 1.629E-10, 2.9618E-09, -1.5724E-07, -337632520.76440006, -1.9519375000000023E-09
DataValue, -32, -1, -1.0764E-09, 3.8221E-09, 1.1322E-07, -261636273.25292379, -1.8753125000000027E-09
DataValue, -32.8, -1, 5.957E-09, 5.9623E-09, 1.3226E-07, -167720510.54123408, 2.0326249999999982E-09
DataValue, -33.6, -1, 6.107E-10, 5.699E-10, 1.4216E-07, -1754693805.9308653, 3.1971874999999973E-09
DataValue, -34.4, -1, -1.0522E-09, 8.468E-10, -1.2012E-07, -1180916391.1195087, -3.3884999999999971E-09
DataValue, -35.2, -1, 4.0945999999999995E-09, 5.9915E-09, -6.302E-08, -166903112.74305266, -2.8470624999999974E-09
DataValue, -36, -1, -5.8007E-09, 5.4021E-09, -1.2928E-07, -185113196.71979415, 1.7048124999999988E-09
DataValue, -36.800000000000004, -1, 2.504E-10, 3.2638E-09, -8.888E-08, -306391322.9977327, 5.8193749999999937E-10
DataValue, -37.6, -1, -1.101E-09, 4.471E-09, -1.6396E-07, -223663609.93066427, -4.4500000000000105E-11
DataValue, -38.4, -1, 7.235E-10, 3.3349999999999998E-09, 4.194E-08, -299850074.96251875, 3.4917499999999968E-09
DataValue, -39.2, -1, 1.231E-09, -1.1158E-09, -2.9388E-07, 896217960.20792258, -1.3211249999999988E-09
DataValue, -40, -1, -5.8973E-09, 5.4488E-09, -1.3406E-07, -183526648.06929967, -8.8576250000000316E-09
DataValue, -40, -1, 1.2155E-09, 5.9703E-09, -1.4792E-07, -167495770.73178902, -8.74725000000003E-09
DataValue, -39.2, -1, -1.2989E-09, -1.549E-09, 1.457E-07, 645577792.123951, -5.1701874999999962E-09
DataValue, -38.4, -1, -3.4184E-09, -2.302E-09, -3.078E-08, 434404865.33449173, -7.2343749999999945E-10
DataValue, -37.6, -1, 5.9465E-09, -2.7065E-09, -2.1086E-07, 369480879.36449289, 3.7253750000000131E-09
DataValue, -36.800000000000004, -1, -1.2009E-09, 3.6586E-09, -4.8019999999999996E-08, -273328595.63767558, 8.274374999999994E-10
DataValue, -36, -1, 7.85E-10, -1.3826E-09, 1.455E-07, 723274989.15087521, -4.1741249999999959E-09
DataValue, -35.2, -1, -6.0472E-09, -3.02E-09, -2.458E-08, 331125827.81456953, 5.929999999999994E-10
DataValue, -34.4, -1, 2.0815E-09, -4.338E-10, 7.26E-08, 2305209774.0894423, -2.2443749999999988E-10
DataValue, -33.6, -1, -1.455E-09, -3.3791E-09, -2.446E-08, 295936787.90210408, -1.9576874999999985E-09
DataValue, -32.8, -1, 1.9703E-09, -3.5661E-09, -2.5E-08, 280418384.2292701, -1.3487499999999988E-10
DataValue, -32, -1, 1.3783E-09, -3.5949E-09, -4.838E-08, 278171854.5717544, 9.3225000000000141E-10
DataValue, -31.2, -1, 7.691E-10, -2.0745E-09, 1.4406E-07, 482043865.99180532, -1.0125000000000017E-11
DataValue, -30.400000000000002, -1, -6.0681E-09, -3.6111E-09, -3.71E-08, 276923928.99670458, -1.1550625000000014E-09
DataValue, -29.6, -1, 3.0495E-09, -3.9226E-09, -1.542E-07, 254932952.63345742, 4.1745624999999964E-09
DataValue, -28.8, -1, -1.1824E-09, 3.0682E-09, 4.79E-08, -325923994.52447689, 5.2749999999999592E-11
DataValue, -28, -1, -1.618E-09, -3.8382E-09, 4.628E-08, 260538794.22646031, -3.0380624999999972E-09
DataValue, -27.2, -1, -2.38E-11, -1.7927E-09, -1.3134E-07, 557817816.70106542, 1.5533750000000024E-09
DataValue, -26.400000000000002, -1, -1.2475E-09, -1.3528E-09, -1.6104E-07, 739207569.48551154, -6.78750000000001E-11
DataValue, -25.6, -1, -1.19E-09, -1.9013E-09, -1.1215999999999999E-07, 525955924.89349389, -1.4829374999999988E-09
DataValue, -24.8, -1, -4.0579E-09, -3.7255E-09, 4.28E-08, 268420346.26224667, 2.1500000000000113E-11
DataValue, -24, -1, -4.6499999999999995E-10, -1.8669E-09, 8.608E-08, 535647329.798061, -8.5062499999999907E-11
DataValue, -23.2, -1, -4.2609999999999992E-09, -3.8616E-09, 4.188E-08, 258960016.57344106, -4.5856250000000066E-10
DataValue, -22.400000000000002, -1, 6.0378E-09, -2.6006E-09, -9.818E-08, 384526647.69668537, 5.591250000000009E-10
DataValue, -21.6, -1, -3.3911E-09, -2.9669999999999998E-09, 1.4678E-07, 337040781.93461412, 4.8343749999999945E-10
DataValue, -20.8, -1, 3.2185E-09, -1.8271E-09, -1.6206E-07, 547315417.87532151, 1.3059374999999987E-09
DataValue, -20, -1, -1.2031E-09, -8.775E-10, 1.4792E-07, 1139601139.6011396, -1.6172499999999983E-09
DataValue, -19.2, -1, -6.1092E-09, -4.4147E-09, -3.666E-08, 226515958.04924458, 2.157562500000003E-09
