
SetupTitle, Id-Vgs
PrimitiveTest, I/V Sweep
TestParameter, Context.MainFrame, B1500A
TestParameter, Channel.UnitType, SMU, SMU, SMU
TestParameter, Channel.Unit, SMU1:MP, SMU4:MP, SMU5:MP
TestParameter, Channel.IName, Is, Id, Ig
TestParameter, Channel.VName, Vs, Vds, Vgs
TestParameter, Channel.Mode, V, V, V
TestParameter, Channel.Func, CONST, VAR2, VAR1
TestParameter, Channel.Index, 
TestParameter, Channel.Time, 
TestParameter, Measurement.Port.Unit, SMU1:MP, SMU4:MP, SMU5:MP
TestParameter, Measurement.Port.SeriesResistor, NONE, NONE, NONE
TestParameter, Measurement.Port.Filter, ON, ON, ON
TestParameter, Measurement.Port.OutputVoltageComparison, 0, 0, 0
TestParameter, Measurement.Primary.Locus, Double
TestParameter, Measurement.Primary.Scale, LINEAR
TestParameter, Measurement.Primary.Start, 40
TestParameter, Measurement.Primary.Stop, -40
TestParameter, Measurement.Primary.Step, -0.8
TestParameter, Measurement.Primary.Compliance, 1E-06
TestParameter, Measurement.Primary.PowerCompliance, 0
TestParameter, Measurement.Aborting.Condition, CONTINUE AT ANY
TestParameter, Measurement.PostOutput.Value, START
TestParameter, Measurement.PostOutput.Retention, OFF
TestParameter, Measurement.Secondary.Start, -1
TestParameter, Measurement.Secondary.Count, 1
TestParameter, Measurement.Secondary.Step, -0.5
TestParameter, Measurement.Secondary.Compliance, 0.0005
TestParameter, Measurement.Secondary.PowerCompliance, 0
TestParameter, Measurement.Bias.Source, 0, -1, 40
TestParameter, Measurement.Bias.Compliance, 0.1, 0.0005, 1E-06
TestParameter, Measurement.Monitor.Unit, SMU1:MP, SMU4:MP, SMU5:MP
TestParameter, Measurement.Monitor.Adc, HR ADC, HR ADC, HR ADC
TestParameter, Measurement.Monitor.Measurement, Compliance Side, Compliance Side, Compliance Side
TestParameter, Measurement.Monitor.RangingMode, LIMITED, LIMITED, LIMITED
TestParameter, Measurement.Monitor.RangeBoundary, 1nA, 1nA, 1nA
TestParameter, Measurement.Monitor.RangeRating, BY FULL RANGE, BY FULL RANGE, BY FULL RANGE
TestParameter, Measurement.Monitor.RangeRatingCoeff, 50, 50, 50
TestParameter, Measurement.Timing.Hold, 0
TestParameter, Measurement.Timing.Delay, 0
TestParameter, Measurement.Adc.HighSpeed.Mode, AUTO
TestParameter, Measurement.Adc.HighSpeed.Coeff, 1
TestParameter, Measurement.Adc.HighResolution.AutoZero, OFF
TestParameter, Measurement.Adc.HighResolution.Mode, AUTO
TestParameter, Measurement.Adc.HighResolution.Coeff, 4
TestParameter, Measurement.WaitTime.Source.Coeff, 1
TestParameter, Measurement.WaitTime.Source.Offset, 0
TestParameter, Measurement.WaitTime.Monitor.Coeff, 1
TestParameter, Measurement.WaitTime.Monitor.Offset, 0
TestParameter, Function.User.Name, R, gm
TestParameter, Function.User.Unit, Ohms, S
TestParameter, Function.User.Definition, Vds/Id, delta(Id)/delta(Vgs)
TestParameter, Output.Graph.Enabled, true
TestParameter, Output.Graph.XAxis.Data, Vgs
TestParameter, Output.Graph.XAxis.Scale, Linear
TestParameter, Output.Graph.XAxis.Left, -50
TestParameter, Output.Graph.XAxis.Right, 50
TestParameter, Output.Graph.YAxis.Data, Id, Is, Ig
TestParameter, Output.Graph.YAxis.Scale, Log, Log, Log
TestParameter, Output.Graph.YAxis.Bottom, -1E-13, 1E-13, 1E-11
TestParameter, Output.Graph.YAxis.Top, -2E-05, 2E-05, 1E-07
TestParameter, Output.Graph.YAxis.Group, , , 
TestParameter, Output.List.Data, Vgs, Vds, Id, Is, Ig, R, gm
TestParameter, AutoAnalysis.Interpolation, false
TestParameter, AutoAnalysis.Line1.Enabled, false
TestParameter, AutoAnalysis.Line1.Type, 1
TestParameter, AutoAnalysis.Line1.Fix, True
TestParameter, AutoAnalysis.Line1.YAxis, 0
TestParameter, AutoAnalysis.Line1.Point1.Type, 0
TestParameter, AutoAnalysis.Line1.Point1.XY.X, 
TestParameter, AutoAnalysis.Line1.Point1.XY.Y, 
TestParameter, AutoAnalysis.Line1.Point1.Data.Var, 
TestParameter, AutoAnalysis.Line1.Point1.Data.Condition, 
TestParameter, AutoAnalysis.Line1.Point1.Data.Start, false
TestParameter, AutoAnalysis.Line1.Point1.Data.StartVar, 
TestParameter, AutoAnalysis.Line1.Point1.Data.StartCondition, 
TestParameter, AutoAnalysis.Line1.Point2.Type, 0
TestParameter, AutoAnalysis.Line1.Point2.XY.X, 
TestParameter, AutoAnalysis.Line1.Point2.XY.Y, 
TestParameter, AutoAnalysis.Line1.Point2.Data.Var, 
TestParameter, AutoAnalysis.Line1.Point2.Data.Condition, 
TestParameter, AutoAnalysis.Line1.Point2.Data.Start, false
TestParameter, AutoAnalysis.Line1.Point2.Data.StartVar, 
TestParameter, AutoAnalysis.Line1.Point2.Data.StartCondition, 
TestParameter, AutoAnalysis.Line1.GradientExpr, 0
TestParameter, AutoAnalysis.Line2.Enabled, false
TestParameter, AutoAnalysis.Line2.Type, 1
TestParameter, AutoAnalysis.Line2.Fix, True
TestParameter, AutoAnalysis.Line2.YAxis, 0
TestParameter, AutoAnalysis.Line2.Point1.Type, 0
TestParameter, AutoAnalysis.Line2.Point1.XY.X, 
TestParameter, AutoAnalysis.Line2.Point1.XY.Y, 
TestParameter, AutoAnalysis.Line2.Point1.Data.Var, 
TestParameter, AutoAnalysis.Line2.Point1.Data.Condition, 
TestParameter, AutoAnalysis.Line2.Point1.Data.Start, false
TestParameter, AutoAnalysis.Line2.Point1.Data.StartVar, 
TestParameter, AutoAnalysis.Line2.Point1.Data.StartCondition, 
TestParameter, AutoAnalysis.Line2.Point2.Type, 0
TestParameter, AutoAnalysis.Line2.Point2.XY.X, 
TestParameter, AutoAnalysis.Line2.Point2.XY.Y, 
TestParameter, AutoAnalysis.Line2.Point2.Data.Var, 
TestParameter, AutoAnalysis.Line2.Point2.Data.Condition, 
TestParameter, AutoAnalysis.Line2.Point2.Data.Start, false
TestParameter, AutoAnalysis.Line2.Point2.Data.StartVar, 
TestParameter, AutoAnalysis.Line2.Point2.Data.StartCondition, 
TestParameter, AutoAnalysis.Line2.GradientExpr, 0
TestParameter, AutoAnalysis.Marker.Enabled, false
TestParameter, AutoAnalysis.Marker.Data.Var, 
TestParameter, AutoAnalysis.Marker.Data.Condition, 
TestParameter, AutoAnalysis.Marker.Data.Start, false
TestParameter, AutoAnalysis.Marker.Data.StartVar, 
TestParameter, AutoAnalysis.Marker.Data.StartCondition, 
MetaData, TestRecord.EntryPoint, true
MetaData, TestRecord.RecordTime, 02/20/2018 02:52:23
MetaData, TestRecord.TestTarget, 180207S4_d3_r2_lch100
MetaData, TestRecord.IterationIndex, 73
MetaData, TestRecord.Preservation, true
MetaData, TestRecord.Flag, 
MetaData, TestRecord.Remarks, 
MetaData, TestRecord.LinkKey, a606fe6b-2421-4679-bdb7-2d7445be73cd
Dimension1, 202, 202, 202, 202, 202, 202, 202
Dimension2, 1, 1, 1, 1, 1, 1, 1
DataName, Vgs, Vds, Is, Id, Ig, R, gm
DataValue, 40, -1, 2.2706E-07, -2.2874E-07, -2.6028E-07, 4371775.8153361892, -5.6225000000000194E-08
DataValue, 39.2, -1, 1.7921999999999999E-07, -1.8376E-07, 2.1469999999999998E-07, 5441880.71397475, -3.6862499999999964E-08
DataValue, 38.4, -1, 1.5956E-07, -1.6976E-07, -2.3898E-07, 5890669.18001885, -2.5799999999999983E-08
DataValue, 37.6, -1, 1.4501999999999998E-07, -1.4248E-07, 2.9664E-07, 7018528.9163391357, -2.0025000000000082E-08
DataValue, 36.800000000000004, -1, 1.2878E-07, -1.3772E-07, -7.406E-08, 7261109.4975312231, -1.5324999999999983E-08
DataValue, 36, -1, 1.2328E-07, -1.1795999999999999E-07, 4.256E-08, 8477449.9830451012, -1.8337499999999981E-08
DataValue, 35.2, -1, 1.0582E-07, -1.0838E-07, -1.5422E-07, 9226794.6115519479, -1.2346374999999991E-08
DataValue, 34.4, -1, 9.01182E-08, -9.8205799999999989E-08, 2.0356E-07, 10182697.966922525, -1.4089749999999986E-08
DataValue, 33.6, -1, 8.5133599999999991E-08, -8.58364E-08, 2.2988E-07, 11650069.201411057, -1.4599249999999983E-08
DataValue, 32.8, -1, 6.6614999999999991E-08, -7.4847E-08, 1.585E-07, 13360588.934760245, -1.416662499999999E-08
DataValue, 32, -1, 5.89766E-08, -6.3169799999999992E-08, 1.0746E-07, 15830349.312487932, -1.2472375000000016E-08
DataValue, 31.2, -1, 4.8773599999999995E-08, -5.4891199999999996E-08, 8.8499999999999992E-08, 18217856.414142888, -1.0304125000000013E-08
DataValue, 30.400000000000002, -1, 4.1122199999999994E-08, -4.6683199999999993E-08, 5.924E-08, 21420982.280563463, -1.0711625000000013E-08
DataValue, 29.6, -1, 3.29076E-08, -3.77526E-08, -5.764E-08, 26488241.869434159, -1.2077249999999987E-08
DataValue, 28.8, -1, 2.6714599999999996E-08, -2.7359599999999996E-08, 8.108E-08, 36550241.962601796, -7.5936249999999947E-09
DataValue, 28, -1, 2.5655199999999998E-08, -2.5602799999999997E-08, -9.146E-08, 39058228.006311812, -5.6931249999999944E-09
DataValue, 27.2, -1, 1.76626E-08, -1.8250599999999997E-08, 1.2196E-07, 54792719.143480219, -4.6850000000000061E-09
DataValue, 26.400000000000002, -1, 1.8765799999999997E-08, -1.8106799999999997E-08, -1.4444E-07, 55227870.192413911, -2.5831250000000021E-09
DataValue, 25.6, -1, 1.1910399999999999E-08, -1.41176E-08, 1.5087999999999999E-07, 70833569.445231482, -3.7586249999999954E-09
DataValue, 24.8, -1, 1.7094199999999998E-08, -1.2093E-08, -1.3992E-07, 82692466.716282144, -6.3600000000000018E-10
DataValue, 24, -1, 9.0558E-09, -1.3099999999999998E-08, -9.6179999999999992E-08, 76335877.862595424, 8.8112499999999906E-10
DataValue, 23.2, -1, 1.1199799999999999E-08, -1.35028E-08, -4.486E-08, 74058713.748259619, 3.2800000000000073E-10
DataValue, 22.400000000000002, -1, 1.3822599999999999E-08, -1.3624799999999999E-08, 2.968E-07, 73395572.779049978, 2.1706250000000021E-09
DataValue, 21.6, -1, 2.1315399999999998E-08, -1.69758E-08, -2.6222E-07, 58907385.808032617, 4.0023749999999963E-09
DataValue, 20.8, -1, 1.79554E-08, -2.00286E-08, 2.2132E-07, 49928602.098998435, 4.6971249999999958E-09
DataValue, 20, -1, 2.9602399999999998E-08, -2.4491199999999998E-08, -1.7888E-07, 40830992.356438234, 6.1374999999999929E-09
DataValue, 19.2, -1, 2.76662E-08, -2.9848599999999996E-08, -5.698E-08, 33502408.823194392, 6.1666250000000077E-09
DataValue, 18.400000000000002, -1, 3.5686399999999995E-08, -3.43578E-08, -6.254E-08, 29105472.410922702, 7.0240000000000088E-09
DataValue, 17.6, -1, 4.63006E-08, -4.1086999999999996E-08, -6.718E-08, 24338598.583493564, 8.99387499999999E-09
DataValue, 16.8, -1, 5.42436E-08, -4.8747999999999994E-08, -4.486E-08, 20513662.098957907, 1.0192624999999992E-08
DataValue, 16, -1, 6.315239999999999E-08, -5.7395199999999996E-08, -5.278E-08, 17423059.768064231, 1.1170000000000003E-08
DataValue, 15.200000000000001, -1, 7.29974E-08, -6.662E-08, -1.555E-07, 15010507.355148604, 1.3966124999999996E-08
DataValue, 14.4, -1, 8.5744199999999988E-08, -7.9740999999999986E-08, 1.1879999999999999E-07, 12540600.193125246, 1.8034124999999982E-08
DataValue, 13.6, -1, 9.3734799999999988E-08, -9.5474599999999991E-08, 4.932E-08, 10473989.940780062, 2.2561875000000014E-08
DataValue, 12.8, -1, 1.1184E-07, -1.1584E-07, -9.076E-08, 8632596.6850828733, 1.9278375000000016E-08
DataValue, 12, -1, 1.3924E-07, -1.2632E-07, 4.438E-08, 7916402.7865737807, 1.8250000000000011E-08
DataValue, 11.200000000000001, -1, 1.4807999999999999E-07, -1.4504E-07, -1.4754E-07, 6894649.7517926088, 2.36E-08
DataValue, 10.4, -1, 1.7666E-07, -1.6408E-07, 1.6016E-07, 6094588.005850805, 3.0449999999999972E-08
DataValue, 9.6, -1, 1.9336E-07, -1.9376E-07, -2.3362E-07, 5161023.9471511142, 2.8287500000000004E-08
DataValue, 8.8, -1, 2.1999999999999999E-07, -2.0934E-07, 2.9642E-07, 4776917.932549919, 3.1625E-08
DataValue, 8, -1, 2.4264E-07, -2.4436E-07, -9.032E-08, 4092322.8024226553, 3.7087499999999987E-08
DataValue, 7.2, -1, 2.8177999999999997E-07, -2.6868E-07, 3.536E-08, 3721899.6575852316, 3.065000000000002E-08
DataValue, 6.4, -1, 2.9755999999999997E-07, -2.934E-07, -1.6362E-07, 3408316.2917518741, 3.48625E-08
DataValue, 5.6000000000000005, -1, 3.4012E-07, -3.2446E-07, 1.3556E-07, 3082044.0115884854, 4.4337499999999969E-08
DataValue, 4.8, -1, 3.649E-07, -3.6434E-07, -1.8786E-07, 2744689.0267332713, 4.169999999999999E-08
DataValue, 4, -1, 4.0294E-07, -3.9118E-07, 2.8218E-07, 2556367.9124699626, 4.5500000000000024E-08
DataValue, 3.2, -1, 4.3686E-07, -4.3714E-07, -7.888E-08, 2287596.6509585031, 5.3699999999999978E-08
DataValue, 2.4, -1, 4.8602E-07, -4.771E-07, 1.6956E-07, 2095996.646405366, 4.31E-08
DataValue, 1.6, -1, 5.2034E-07, -5.061E-07, -6.296E-08, 1975894.0920766646, 3.7512500000000052E-08
DataValue, 0.8, -1, 5.4746E-07, -5.3712E-07, 1.5536E-07, 1861781.3523979744, 5.9087499999999966E-08
DataValue, 0, -1, 5.9958E-07, -6.0064E-07, -1.6626E-07, 1664890.7831646246, 6.7412499999999943E-08
DataValue, -0.8, -1, 6.607E-07, -6.4497999999999994E-07, 4.696E-08, 1550435.6724239513, 5.3487500000000035E-08
DataValue, -1.6, -1, 6.9354E-07, -6.8622E-07, -1.5799999999999999E-07, 1457258.6051120632, 6.1537500000000031E-08
DataValue, -2.4, -1, 7.5904E-07, -7.4344E-07, 1.6188E-07, 1345098.4612073605, 7.3199999999999954E-08
DataValue, -3.2, -1, 8.0686E-07, -8.0333999999999994E-07, -2.52E-07, 1244802.9476933803, 6.6425000000000014E-08
DataValue, -4, -1, 8.6528E-07, -8.4972E-07, 2.9642E-07, 1176858.259191263, 7.1600000000000072E-08
DataValue, -4.8, -1, 9.1939999999999993E-07, -9.179E-07, -8.56E-08, 1089443.2944765224, 8.2262500000000013E-08
DataValue, -5.6000000000000005, -1, 9.9714E-07, -9.8134E-07, 5.264E-08, 1019014.8164754314, 6.8500000000000024E-08
DataValue, -6.4, -1, 1.0336000000000002E-06, -1.0275000000000001E-06, -1.4428E-07, 973236.00973236, 7.2787500000000029E-08
DataValue, -7.2, -1, 1.1159000000000002E-06, -1.0978E-06, 1.6748E-07, 910912.73456002912, 8.6250000000000008E-08
DataValue, -8, -1, 1.1662000000000002E-06, -1.1655000000000001E-06, -3.394E-08, 858000.85800085787, 7.9499999999999991E-08
DataValue, -8.8, -1, 1.2343000000000002E-06, -1.2250000000000001E-06, -9.608E-08, 816326.53061224485, 8.5937499999999985E-08
DataValue, -9.6, -1, 1.3188000000000002E-06, -1.303E-06, 4.646E-08, 767459.7083653108, 8.3500000000000066E-08
DataValue, -10.4, -1, 1.3698000000000002E-06, -1.3586000000000002E-06, 2.126E-08, 736051.81804799044, 7.3687500000000044E-08
DataValue, -11.200000000000001, -1, 1.4317000000000002E-06, -1.4209000000000002E-06, 6.958E-08, 703779.29481314647, 1.0118749999999995E-07
DataValue, -12, -1, 1.5270000000000002E-06, -1.5205E-06, -5.3639999999999996E-08, 657678.39526471554, 1.0243749999999991E-07
DataValue, -12.8, -1, 1.5940000000000001E-06, -1.5848E-06, -7.648E-08, 630994.44724886422, 8.5187500000000061E-08
DataValue, -13.6, -1, 1.6703000000000001E-06, -1.6568000000000002E-06, -5.81E-08, 603573.15306615154, 9.4000000000000074E-08
DataValue, -14.4, -1, 1.7444000000000002E-06, -1.7352000000000001E-06, -3.4299999999999996E-08, 576302.44352236053, 1.0068749999999993E-07
DataValue, -15.200000000000001, -1, 1.8266000000000002E-06, -1.8179000000000002E-06, -9.378E-08, 550085.26321579842, 1.1462500000000004E-07
DataValue, -16, -1, 1.9286E-06, -1.9186E-06, 5.85E-08, 521213.38475972059, 1.0918750000000002E-07
DataValue, -16.8, -1, 2.0027000000000003E-06, -1.9926E-06, 5.2099999999999997E-08, 501856.870420556, 9.6187499999999868E-08
DataValue, -17.6, -1, 2.0841E-06, -2.0725E-06, 2.272E-08, 482509.04704463208, 1.0318749999999985E-07
DataValue, -18.400000000000002, -1, 2.1685E-06, -2.1577E-06, 1.5318E-07, 463456.4582657459, 1.2218750000000021E-07
DataValue, -19.2, -1, 2.2698000000000003E-06, -2.268E-06, -4.084E-08, 440917.1075837742, 1.2393750000000034E-07
DataValue, -20, -1, 2.3688E-06, -2.3560000000000004E-06, -2.2949999999999998E-07, 424448.21731748717, 1.1649999999999991E-07
DataValue, -20.8, -1, 2.4698E-06, -2.4544E-06, 1.536E-07, 407431.55149934808, 1.3062499999999991E-07
DataValue, -21.6, -1, 2.5672E-06, -2.5650000000000004E-06, -3.774E-08, 389863.54775828455, 1.2712499999999992E-07
DataValue, -22.400000000000002, -1, 2.6693000000000004E-06, -2.6578E-06, -9.994E-08, 376251.03469034535, 1.3575000000000006E-07
DataValue, -23.2, -1, 2.7990000000000002E-06, -2.7822000000000002E-06, 5.646E-08, 359427.79095679673, 1.3087500000000022E-07
DataValue, -24, -1, 2.882E-06, -2.8672000000000003E-06, 2.2699999999999998E-08, 348772.32142857142, 1.127499999999999E-07
DataValue, -24.8, -1, 2.9798000000000003E-06, -2.9626000000000002E-06, 9.218E-08, 337541.34881522984, 1.5174999999999989E-07
DataValue, -25.6, -1, 3.1161E-06, -3.1100000000000003E-06, -5.098E-08, 321543.40836012858, 1.5056249999999993E-07
DataValue, -26.400000000000002, -1, 3.2166000000000003E-06, -3.2035000000000003E-06, -3.116E-08, 312158.57655689085, 1.2612500000000011E-07
DataValue, -27.2, -1, 3.3244000000000003E-06, -3.3118E-06, -7.78E-08, 301950.60088169575, 1.5675000000000034E-07
DataValue, -28, -1, 3.4702000000000002E-06, -3.4543000000000005E-06, 4.1139999999999996E-08, 289494.25353906723, 1.4812499999999988E-07
DataValue, -28.8, -1, 3.5657000000000004E-06, -3.5488000000000002E-06, 1.948E-08, 281785.392245266, 1.2474999999999974E-07
DataValue, -29.6, -1, 3.6684000000000003E-06, -3.6539000000000003E-06, 1.3789999999999998E-07, 273680.17734475492, 1.5474999999999985E-07
DataValue, -30.400000000000002, -1, 3.7980000000000003E-06, -3.7964E-06, -4.414E-08, 263407.43862606678, 1.5737500000000039E-07
DataValue, -31.2, -1, 3.9211000000000005E-06, -3.9057000000000006E-06, -1.2246E-07, 256036.04987582247, 1.6481250000000029E-07
DataValue, -32, -1, 4.0806E-06, -4.0601E-06, 3.278E-08, 246299.35223270362, 1.6006250000000019E-07
DataValue, -32.8, -1, 4.1771E-06, -4.1618000000000005E-06, 2.952E-07, 240280.64779662644, 1.5150000000000013E-07
DataValue, -33.6, -1, 4.3052000000000007E-06, -4.3025000000000007E-06, -6.794E-08, 232423.00987797789, 1.5956249999999981E-07
DataValue, -34.4, -1, 4.4309E-06, -4.4171000000000005E-06, -3.53E-08, 226392.88220778338, 1.4912499999999969E-07
DataValue, -35.2, -1, 4.5585000000000005E-06, -4.5411000000000004E-06, -9.294E-08, 220210.96210169341, 1.8274999999999981E-07
DataValue, -36, -1, 4.7278000000000007E-06, -4.7095E-06, 3.64E-08, 212336.7661110521, 1.7287499999999986E-07
DataValue, -36.800000000000004, -1, 4.8354E-06, -4.8177000000000005E-06, 4.654E-08, 207567.92660398112, 1.4506249999999978E-07
DataValue, -37.6, -1, 4.9596000000000008E-06, -4.9416E-06, 2.258E-08, 202363.60692892989, 1.5437500000000077E-07
DataValue, -38.4, -1, 5.0832000000000007E-06, -5.0647000000000008E-06, 1.554E-07, 197445.06091180127, 1.7918749999999994E-07
DataValue, -39.2, -1, 5.2335000000000008E-06, -5.2283E-06, -2.0073999999999998E-07, 191266.75974982308, 2.0224999999999966E-07
DataValue, -40, -1, 5.4093000000000009E-06, -5.3883000000000006E-06, 1.5424E-07, 185587.29098231351, 1.4225000000000113E-07
DataValue, -40, -1, 5.3453E-06, -5.3421000000000009E-06, -2.09E-07, 187192.30265251489, 3.2212500000000128E-07
DataValue, -39.2, -1, 5.1348E-06, -5.1306000000000005E-06, 4.7599999999999996E-08, 194908.97750750397, 2.6700000000000026E-07
DataValue, -38.4, -1, 4.9171000000000007E-06, -4.9149E-06, 2.252E-08, 203462.93922562004, 2.6637499999999995E-07
DataValue, -37.6, -1, 4.7038000000000006E-06, -4.7044E-06, 8.84E-08, 212566.95859195647, 2.4443750000000055E-07
DataValue, -36.800000000000004, -1, 4.5167E-06, -4.5238000000000006E-06, -5.062E-08, 221053.09695388831, 2.1999999999999993E-07
DataValue, -36, -1, 4.3513E-06, -4.3524E-06, -2.4454E-07, 229758.2942744233, 2.2643749999999973E-07
DataValue, -35.2, -1, 4.1643E-06, -4.1615000000000007E-06, 2.028E-08, 240297.96948215785, 2.2231249999999971E-07
DataValue, -34.4, -1, 3.9966E-06, -3.9967E-06, 1.3912E-07, 250206.42029674479, 2.0687500000000027E-07
DataValue, -33.6, -1, 3.8186E-06, -3.8305E-06, -3.98E-08, 261062.52447461168, 2.0187499999999963E-07
DataValue, -32.8, -1, 3.6683000000000005E-06, -3.6737000000000005E-06, -2.598E-08, 272205.13378882321, 1.9487499999999963E-07
DataValue, -32, -1, 3.5130000000000005E-06, -3.5187000000000003E-06, -9.306E-08, 284195.86779208225, 2.0162500000000033E-07
DataValue, -31.2, -1, 3.3515000000000004E-06, -3.3511000000000004E-06, 6.3079999999999993E-08, 298409.47748500487, 1.9262500000000018E-07
DataValue, -30.400000000000002, -1, 3.2086000000000005E-06, -3.2105000000000004E-06, 2.616E-08, 311477.96293412236, 1.7762500000000035E-07
DataValue, -29.6, -1, 3.0644000000000003E-06, -3.0669000000000002E-06, 1.5264E-07, 326062.14744530304, 1.766875E-07
DataValue, -28.8, -1, 2.9149000000000002E-06, -2.9278E-06, -1.646E-07, 341553.38479404332, 1.7624999999999985E-07
DataValue, -28, -1, 2.7877000000000004E-06, -2.7849000000000002E-06, 2.31E-08, 359079.32062192535, 1.672499999999997E-07
