
SetupTitle, Id-Vgs
PrimitiveTest, I/V Sweep
TestParameter, Context.MainFrame, B1500A
TestParameter, Channel.UnitType, SMU, SMU, SMU
TestParameter, Channel.Unit, SMU1:MP, SMU4:MP, SMU5:MP
TestParameter, Channel.IName, Is, Id, Ig
TestParameter, Channel.VName, Vs, Vds, Vgs
TestParameter, Channel.Mode, V, V, V
TestParameter, Channel.Func, CONST, VAR2, VAR1
TestParameter, Channel.Index, 
TestParameter, Channel.Time, 
TestParameter, Measurement.Port.Unit, SMU1:MP, SMU4:MP, SMU5:MP
TestParameter, Measurement.Port.SeriesResistor, NONE, NONE, NONE
TestParameter, Measurement.Port.Filter, ON, ON, ON
TestParameter, Measurement.Port.OutputVoltageComparison, 0, 0, 0
TestParameter, Measurement.Primary.Locus, Double
TestParameter, Measurement.Primary.Scale, LINEAR
TestParameter, Measurement.Primary.Start, 40
TestParameter, Measurement.Primary.Stop, -40
TestParameter, Measurement.Primary.Step, -0.8
TestParameter, Measurement.Primary.Compliance, 1E-06
TestParameter, Measurement.Primary.PowerCompliance, 0
TestParameter, Measurement.Aborting.Condition, CONTINUE AT ANY
TestParameter, Measurement.PostOutput.Value, START
TestParameter, Measurement.PostOutput.Retention, OFF
TestParameter, Measurement.Secondary.Start, -1
TestParameter, Measurement.Secondary.Count, 1
TestParameter, Measurement.Secondary.Step, -0.5
TestParameter, Measurement.Secondary.Compliance, 0.0005
TestParameter, Measurement.Secondary.PowerCompliance, 0
TestParameter, Measurement.Bias.Source, 0, -1, 40
TestParameter, Measurement.Bias.Compliance, 0.1, 0.0005, 1E-06
TestParameter, Measurement.Monitor.Unit, SMU1:MP, SMU4:MP, SMU5:MP
TestParameter, Measurement.Monitor.Adc, HR ADC, HR ADC, HR ADC
TestParameter, Measurement.Monitor.Measurement, Compliance Side, Compliance Side, Compliance Side
TestParameter, Measurement.Monitor.RangingMode, LIMITED, LIMITED, LIMITED
TestParameter, Measurement.Monitor.RangeBoundary, 1nA, 1nA, 1nA
TestParameter, Measurement.Monitor.RangeRating, BY FULL RANGE, BY FULL RANGE, BY FULL RANGE
TestParameter, Measurement.Monitor.RangeRatingCoeff, 50, 50, 50
TestParameter, Measurement.Timing.Hold, 0
TestParameter, Measurement.Timing.Delay, 0
TestParameter, Measurement.Adc.HighSpeed.Mode, AUTO
TestParameter, Measurement.Adc.HighSpeed.Coeff, 1
TestParameter, Measurement.Adc.HighResolution.AutoZero, OFF
TestParameter, Measurement.Adc.HighResolution.Mode, AUTO
TestParameter, Measurement.Adc.HighResolution.Coeff, 4
TestParameter, Measurement.WaitTime.Source.Coeff, 1
TestParameter, Measurement.WaitTime.Source.Offset, 0
TestParameter, Measurement.WaitTime.Monitor.Coeff, 1
TestParameter, Measurement.WaitTime.Monitor.Offset, 0
TestParameter, Function.User.Name, R, gm
TestParameter, Function.User.Unit, Ohms, S
TestParameter, Function.User.Definition, Vds/Id, delta(Id)/delta(Vgs)
TestParameter, Output.Graph.Enabled, true
TestParameter, Output.Graph.XAxis.Data, Vgs
TestParameter, Output.Graph.XAxis.Scale, Linear
TestParameter, Output.Graph.XAxis.Left, -50
TestParameter, Output.Graph.XAxis.Right, 50
TestParameter, Output.Graph.YAxis.Data, Id, Is, Ig
TestParameter, Output.Graph.YAxis.Scale, Log, Log, Log
TestParameter, Output.Graph.YAxis.Bottom, -1E-13, 1E-13, 1E-11
TestParameter, Output.Graph.YAxis.Top, -2E-05, 2E-05, 1E-07
TestParameter, Output.Graph.YAxis.Group, , , 
TestParameter, Output.List.Data, Vgs, Vds, Id, Is, Ig, R, gm
TestParameter, AutoAnalysis.Interpolation, false
TestParameter, AutoAnalysis.Line1.Enabled, false
TestParameter, AutoAnalysis.Line1.Type, 1
TestParameter, AutoAnalysis.Line1.Fix, True
TestParameter, AutoAnalysis.Line1.YAxis, 0
TestParameter, AutoAnalysis.Line1.Point1.Type, 0
TestParameter, AutoAnalysis.Line1.Point1.XY.X, 
TestParameter, AutoAnalysis.Line1.Point1.XY.Y, 
TestParameter, AutoAnalysis.Line1.Point1.Data.Var, 
TestParameter, AutoAnalysis.Line1.Point1.Data.Condition, 
TestParameter, AutoAnalysis.Line1.Point1.Data.Start, false
TestParameter, AutoAnalysis.Line1.Point1.Data.StartVar, 
TestParameter, AutoAnalysis.Line1.Point1.Data.StartCondition, 
TestParameter, AutoAnalysis.Line1.Point2.Type, 0
TestParameter, AutoAnalysis.Line1.Point2.XY.X, 
TestParameter, AutoAnalysis.Line1.Point2.XY.Y, 
TestParameter, AutoAnalysis.Line1.Point2.Data.Var, 
TestParameter, AutoAnalysis.Line1.Point2.Data.Condition, 
TestParameter, AutoAnalysis.Line1.Point2.Data.Start, false
TestParameter, AutoAnalysis.Line1.Point2.Data.StartVar, 
TestParameter, AutoAnalysis.Line1.Point2.Data.StartCondition, 
TestParameter, AutoAnalysis.Line1.GradientExpr, 0
TestParameter, AutoAnalysis.Line2.Enabled, false
TestParameter, AutoAnalysis.Line2.Type, 1
TestParameter, AutoAnalysis.Line2.Fix, True
TestParameter, AutoAnalysis.Line2.YAxis, 0
TestParameter, AutoAnalysis.Line2.Point1.Type, 0
TestParameter, AutoAnalysis.Line2.Point1.XY.X, 
TestParameter, AutoAnalysis.Line2.Point1.XY.Y, 
TestParameter, AutoAnalysis.Line2.Point1.Data.Var, 
TestParameter, AutoAnalysis.Line2.Point1.Data.Condition, 
TestParameter, AutoAnalysis.Line2.Point1.Data.Start, false
TestParameter, AutoAnalysis.Line2.Point1.Data.StartVar, 
TestParameter, AutoAnalysis.Line2.Point1.Data.StartCondition, 
TestParameter, AutoAnalysis.Line2.Point2.Type, 0
TestParameter, AutoAnalysis.Line2.Point2.XY.X, 
TestParameter, AutoAnalysis.Line2.Point2.XY.Y, 
TestParameter, AutoAnalysis.Line2.Point2.Data.Var, 
TestParameter, AutoAnalysis.Line2.Point2.Data.Condition, 
TestParameter, AutoAnalysis.Line2.Point2.Data.Start, false
TestParameter, AutoAnalysis.Line2.Point2.Data.StartVar, 
TestParameter, AutoAnalysis.Line2.Point2.Data.StartCondition, 
TestParameter, AutoAnalysis.Line2.GradientExpr, 0
TestParameter, AutoAnalysis.Marker.Enabled, false
TestParameter, AutoAnalysis.Marker.Data.Var, 
TestParameter, AutoAnalysis.Marker.Data.Condition, 
TestParameter, AutoAnalysis.Marker.Data.Start, false
TestParameter, AutoAnalysis.Marker.Data.StartVar, 
TestParameter, AutoAnalysis.Marker.Data.StartCondition, 
MetaData, TestRecord.EntryPoint, true
MetaData, TestRecord.RecordTime, 02/20/2018 02:51:14
MetaData, TestRecord.TestTarget, 180207S4_d3_r1_lch100
MetaData, TestRecord.IterationIndex, 71
MetaData, TestRecord.Preservation, true
MetaData, TestRecord.Flag, 
MetaData, TestRecord.Remarks, 
MetaData, TestRecord.LinkKey, 14307ab1-3c9c-4ecb-af09-2746e252032a
Dimension1, 202, 202, 202, 202, 202, 202, 202
Dimension2, 1, 1, 1, 1, 1, 1, 1
DataName, Vgs, Vds, Is, Id, Ig, R, gm
DataValue, 40, -1, 2.609E-07, -2.6276E-07, -4E-08, 3805754.3005023594, -6.3425000000000252E-08
DataValue, 39.2, -1, 2.0496E-07, -2.1202E-07, 1.7604E-07, 4716536.175832469, -4.047499999999997E-08
DataValue, 38.4, -1, 1.8644E-07, -1.98E-07, -1.4484E-07, 5050505.05050505, -2.764999999999998E-08
DataValue, 37.6, -1, 1.7094E-07, -1.6777999999999998E-07, 2.9396E-07, 5960185.957801884, -2.4175000000000086E-08
DataValue, 36.800000000000004, -1, 1.5152E-07, -1.5932E-07, -2.7094E-07, 6276675.8724579467, -2.399999999999998E-08
DataValue, 36, -1, 1.3742E-07, -1.2937999999999999E-07, 9.518E-08, 7729169.887154121, -2.1074999999999989E-08
DataValue, 35.2, -1, 1.1795999999999999E-07, -1.2559999999999999E-07, -4.068E-08, 7961783.4394904468, -1.452499999999998E-08
DataValue, 34.4, -1, 1.0811999999999999E-07, -1.0614E-07, 1.5466E-07, 9421518.7488223109, -1.4812499999999983E-08
DataValue, 33.6, -1, 1.0306639999999999E-07, -1.0189999999999999E-07, -4.6759999999999997E-08, 9813542.6889106967, -9.8298749999999976E-09
DataValue, 32.8, -1, 8.8418199999999989E-08, -9.0412199999999987E-08, -1.4676E-07, 11060454.23073435, -1.361512499999999E-08
DataValue, 32, -1, 7.46662E-08, -8.011579999999999E-08, 5.724E-08, 12481932.40284688, -1.2562875000000013E-08
DataValue, 31.2, -1, 6.473499999999999E-08, -7.0311599999999993E-08, 1.9165999999999998E-07, 14222404.268996866, -1.3356125000000014E-08
DataValue, 30.400000000000002, -1, 5.3126999999999997E-08, -5.8745999999999995E-08, 1.021E-07, 17022435.570081368, -1.2188500000000014E-08
DataValue, 29.6, -1, 4.56498E-08, -5.0809999999999996E-08, 4.7319999999999996E-08, 19681165.1249754, -9.61787499999999E-09
DataValue, 28.8, -1, 3.7985E-08, -4.33574E-08, 5.4999999999999996E-08, 23064113.623049352, -8.2198749999999934E-09
DataValue, 28, -1, 3.2147199999999994E-08, -3.7658199999999996E-08, -2.2991999999999998E-07, 26554641.4857853, -1.0194624999999993E-08
DataValue, 27.2, -1, 2.4285399999999997E-08, -2.7045999999999996E-08, 2.9432E-07, 36974044.220956892, -9.3893750000000109E-09
DataValue, 26.400000000000002, -1, 2.6558599999999998E-08, -2.2635199999999998E-08, 5.578E-08, 44178977.875167884, -2.7371250000000022E-09
DataValue, 25.6, -1, 2.17714E-08, -2.26666E-08, -4.834E-08, 44117776.816990644, -5.0231249999999949E-09
DataValue, 24.8, -1, 1.6138399999999997E-08, -1.4598199999999999E-08, 4.558E-08, 68501596.08718884, -3.4581249999999975E-09
DataValue, 24, -1, 1.75712E-08, -1.7133599999999998E-08, -7.714E-08, 58364850.3525237, -1.0000000000003059E-12
DataValue, 23.2, -1, 1.3345399999999998E-08, -1.4596599999999998E-08, 2.1746E-07, 68509104.860035911, -1.3601250000000019E-09
DataValue, 22.400000000000002, -1, 2.0160399999999998E-08, -1.4957399999999998E-08, -1.3966E-07, 66856539.238102891, 1.4606250000000027E-09
DataValue, 21.6, -1, 1.39266E-08, -1.69336E-08, 3.512E-08, 59054188.123021685, 4.3147499999999948E-09
DataValue, 20.8, -1, 2.0315999999999998E-08, -2.1860999999999996E-08, -9.184E-08, 45743561.593705691, 4.947374999999995E-09
DataValue, 20, -1, 3.1110199999999996E-08, -2.4849399999999998E-08, -1.5311999999999998E-07, 40242420.340128943, 5.0307499999999969E-09
DataValue, 19.2, -1, 3.84444E-08, -2.99102E-08, -1.6856E-07, 33433410.6759567, 7.4347500000000081E-09
DataValue, 18.400000000000002, -1, 4.6151599999999994E-08, -3.6744999999999996E-08, -2.2094E-07, 27214587.018641993, 9.41125000000001E-09
DataValue, 17.6, -1, 5.44E-08, -4.4968199999999994E-08, -2.6982E-07, 22237937.031057507, 1.1056874999999988E-08
DataValue, 16.8, -1, 6.38844E-08, -5.4435999999999992E-08, -3.0098E-07, 18370196.193695351, 9.7109999999999885E-09
DataValue, 16, -1, 6.09702E-08, -6.0505799999999988E-08, -5.534E-08, 16527341.18051493, 8.366375000000004E-09
DataValue, 15.200000000000001, -1, 7.2099799999999993E-08, -6.78222E-08, -2.851E-07, 14744434.713117534, 1.3005500000000004E-08
DataValue, 14.4, -1, 8.08308E-08, -8.1314599999999989E-08, -4.742E-08, 12297914.519655759, 1.9286874999999983E-08
DataValue, 13.6, -1, 1.015E-07, -9.8681199999999993E-08, -1.5342E-07, 10133642.4769865, 1.7668750000000004E-08
DataValue, 12.8, -1, 1.1804E-07, -1.0958459999999999E-07, 4.462E-08, 9125369.8056113739, 1.5299250000000007E-08
DataValue, 12, -1, 1.2752E-07, -1.2316E-07, -2.5258E-07, 8119519.3244559923, 1.7472125000000009E-08
DataValue, 11.200000000000001, -1, 1.4246E-07, -1.3754E-07, 1.6037999999999998E-07, 7270612.1855460228, 2.7400000000000007E-08
DataValue, 10.4, -1, 1.6282E-07, -1.67E-07, -1.4585999999999998E-07, 5988023.9520958085, 2.7237499999999975E-08
DataValue, 9.6, -1, 1.9164E-07, -1.8112E-07, 2.2728E-07, 5521201.4134275615, 2.9075000000000004E-08
DataValue, 8.8, -1, 2.1222E-07, -2.1352E-07, -2.98E-07, 4683402.0232296744, 3.148750000000001E-08
DataValue, 8, -1, 2.404E-07, -2.315E-07, 6.356E-08, 4319654.4276457885, 2.7474999999999993E-08
DataValue, 7.2, -1, 2.6104E-07, -2.5748E-07, -2.2543999999999999E-07, 3883796.7997514368, 3.4687500000000019E-08
DataValue, 6.4, -1, 2.9699999999999997E-07, -2.87E-07, 3.0368E-07, 3484320.557491289, 4.28875E-08
DataValue, 5.6000000000000005, -1, 3.2464E-07, -3.261E-07, -2.8562E-07, 3066544.0049064704, 3.7787499999999987E-08
DataValue, 4.8, -1, 3.6048E-07, -3.4746E-07, 8.992E-08, 2878029.1256547514, 4.40125E-08
DataValue, 4, -1, 3.9472E-07, -3.9652E-07, -5.6639999999999996E-08, 2521940.8857056391, 4.2024999999999981E-08
DataValue, 3.2, -1, 4.2524E-07, -4.147E-07, 1.0629999999999999E-07, 2411381.7217265493, 4.6050000000000005E-08
DataValue, 2.4, -1, 4.66E-07, -4.702E-07, -5.93E-08, 2126754.572522331, 5.22E-08
DataValue, 1.6, -1, 5.0404E-07, -4.9822E-07, 1.5967999999999999E-07, 2007145.4377584201, 5.3312500000000008E-08
DataValue, 0.8, -1, 5.5589999999999994E-07, -5.555E-07, -2.2532E-07, 1800180.0180018002, 5.8437500000000023E-08
DataValue, 0, -1, 6.0364E-07, -5.9172E-07, 3.0368E-07, 1689988.5080781451, 5.6412499999999977E-08
DataValue, -0.8, -1, 6.4226E-07, -6.4576E-07, -1.6114E-07, 1548562.9335976215, 6.0137499999999965E-08
DataValue, -1.6, -1, 7.0396E-07, -6.8794E-07, 1.4522E-07, 1453615.1408553072, 6.3375E-08
DataValue, -2.4, -1, 7.5028E-07, -7.4716E-07, -2.4248E-07, 1338401.4133518925, 6.5825E-08
DataValue, -3.2, -1, 8.0858E-07, -7.9325999999999994E-07, 2.9086E-07, 1260620.7296472783, 6.9700000000000022E-08
DataValue, -4, -1, 8.6246E-07, -8.5868E-07, -9.65E-08, 1164578.1897796618, 7.8550000000000012E-08
DataValue, -4.8, -1, 9.3975999999999994E-07, -9.1893999999999994E-07, 4.7459999999999996E-08, 1088210.3292924457, 6.988750000000001E-08
DataValue, -5.6000000000000005, -1, 9.8028E-07, -9.705E-07, -1.5412E-07, 1030396.7027305513, 7.503749999999996E-08
DataValue, -6.4, -1, 1.0621E-06, -1.039E-06, 1.616E-07, 962463.9076034649, 8.7412499999999937E-08
DataValue, -7.2, -1, 1.1143E-06, -1.11036E-06, 1.1474E-07, 900608.81155661226, 7.9000000000000125E-08
DataValue, -8, -1, 1.1690000000000002E-06, -1.1654E-06, -9.214E-08, 858074.480864939, 8.033750000000008E-08
DataValue, -8.8, -1, 1.2564000000000002E-06, -1.2389000000000001E-06, 3.534E-08, 807167.64872063918, 8.03750000000001E-08
DataValue, -9.6, -1, 1.306E-06, -1.2940000000000002E-06, 1.854E-08, 772797.52704791329, 7.3499999999999977E-08
DataValue, -10.4, -1, 1.3677E-06, -1.3565E-06, 2.5184E-07, 737191.30114264647, 9.4687499999999888E-08
DataValue, -11.200000000000001, -1, 1.4512000000000002E-06, -1.4455000000000002E-06, -2.6888E-07, 691802.14458664809, 1.0056250000000004E-07
DataValue, -12, -1, 1.5343E-06, -1.5174E-06, 1.353E-07, 659022.01133517851, 9.9562499999999963E-08
DataValue, -12.8, -1, 1.6079E-06, -1.6048E-06, -4.312E-08, 623130.60817547352, 1.0100000000000007E-07
DataValue, -13.6, -1, 1.6904000000000002E-06, -1.6790000000000002E-06, -9.892E-08, 595592.61465157825, 1.0675000000000011E-07
DataValue, -14.4, -1, 1.7916000000000001E-06, -1.7756000000000002E-06, 4.532E-08, 563189.907636855, 1.0356249999999988E-07
DataValue, -15.200000000000001, -1, 1.8571000000000002E-06, -1.8447E-06, 4.852E-08, 542093.56534937932, 9.4062499999999946E-08
DataValue, -16, -1, 1.9382000000000003E-06, -1.9261E-06, 1.984E-08, 519183.84299880586, 1.0131249999999996E-07
DataValue, -16.8, -1, 2.0182E-06, -2.0068E-06, 8.226E-08, 498305.76041459042, 1.2575000000000008E-07
DataValue, -17.6, -1, 2.1357E-06, -2.1273000000000004E-06, -5.368E-08, 470079.44342593889, 1.264375E-07
DataValue, -18.400000000000002, -1, 2.2210000000000004E-06, -2.2091E-06, -2.884E-08, 452673.03426734864, 1.1049999999999998E-07
DataValue, -19.2, -1, 2.3135000000000004E-06, -2.3041E-06, -9.29E-08, 434008.940584176, 1.3118750000000012E-07
DataValue, -20, -1, 2.4375000000000004E-06, -2.419E-06, 3.434E-08, 413393.96444811905, 1.2418750000000009E-07
DataValue, -20.8, -1, 2.5169000000000004E-06, -2.5028000000000004E-06, 1.848E-08, 399552.50119865744, 1.0887500000000015E-07
DataValue, -21.6, -1, 2.6085E-06, -2.5932000000000004E-06, 7.1459999999999993E-08, 385623.93953416625, 1.4237499999999971E-07
DataValue, -22.400000000000002, -1, 2.7409000000000003E-06, -2.7306E-06, -5.618E-08, 366219.87841500033, 1.4425000000000017E-07
DataValue, -23.2, -1, 2.8362000000000005E-06, -2.8240000000000004E-06, -1.6432E-07, 354107.64872521244, 1.2906250000000019E-07
DataValue, -24, -1, 2.9589E-06, -2.9371000000000002E-06, 2.066E-08, 340471.89404514653, 1.2793749999999984E-07
DataValue, -24.8, -1, 3.0440000000000004E-06, -3.0287000000000003E-06, 8.628E-08, 330174.66239640769, 1.5124999999999985E-07
DataValue, -25.6, -1, 3.1884000000000003E-06, -3.1791E-06, -4.2919999999999997E-08, 314554.43364474218, 1.5387499999999978E-07
DataValue, -26.400000000000002, -1, 3.2880000000000005E-06, -3.2749E-06, -2.782E-08, 305352.83520107483, 1.2906250000000019E-07
DataValue, -27.2, -1, 3.3981000000000006E-06, -3.3856000000000002E-06, -2.9444E-07, 295368.62003780715, 1.4587500000000029E-07
DataValue, -28, -1, 3.5276000000000003E-06, -3.5083000000000004E-06, 2.3098E-07, 285038.33765641478, 1.5962499999999995E-07
DataValue, -28.8, -1, 3.6502000000000002E-06, -3.6410000000000004E-06, -1.4384E-07, 274649.82147761603, 1.5949999999999994E-07
DataValue, -29.6, -1, 3.7861000000000005E-06, -3.7635000000000005E-06, 2.458E-08, 265710.11026969575, 1.39125E-07
DataValue, -30.400000000000002, -1, 3.8793E-06, -3.8636000000000006E-06, 8.412E-08, 258825.965420851, 1.6656250000000015E-07
DataValue, -31.2, -1, 4.0396E-06, -4.03E-06, -4.726E-08, 248138.95781637714, 1.7018750000000019E-07
DataValue, -32, -1, 4.1512E-06, -4.1359000000000005E-06, -2.972E-08, 241785.34297250898, 1.450625000000001E-07
DataValue, -32.8, -1, 4.2726E-06, -4.2621E-06, -9.238E-08, 234626.12327256516, 1.7900000000000005E-07
DataValue, -33.6, -1, 4.4415000000000006E-06, -4.4223000000000008E-06, 3.782E-08, 226126.67616398702, 1.6793750000000015E-07
DataValue, -34.4, -1, 4.5481000000000006E-06, -4.5308000000000007E-06, 2.02E-08, 220711.57411494656, 1.4237499999999971E-07
DataValue, -35.2, -1, 4.6682000000000005E-06, -4.6501000000000006E-06, 8.0819999999999992E-08, 215049.13872819935, 1.8693749999999946E-07
DataValue, -36, -1, 4.8414000000000008E-06, -4.8299E-06, -5.99E-08, 207043.62409159608, 1.871875E-07
DataValue, -36.800000000000004, -1, 4.9642000000000007E-06, -4.9496000000000009E-06, -1.4636E-07, 202036.52820429931, 1.6725000000000023E-07
DataValue, -37.6, -1, 5.1208E-06, -5.0975000000000007E-06, 1.5516E-07, 196174.59538989698, 1.9806250000000038E-07
DataValue, -38.4, -1, 5.2748000000000007E-06, -5.2665E-06, -1.9034E-07, 189879.42656413178, 2.0293749999999958E-07
DataValue, -39.2, -1, 5.443E-06, -5.4222E-06, 1.677E-07, 184426.98535649735, 1.9024999999999984E-07
DataValue, -40, -1, 5.5784000000000007E-06, -5.5709E-06, -3.982E-08, 179504.2093737098, 9.71250000000005E-08
DataValue, -40, -1, 5.5111000000000005E-06, -5.4999000000000005E-06, 5.29E-08, 181821.48766341206, 3.8537500000000148E-07
DataValue, -39.2, -1, 5.2647000000000006E-06, -5.2626E-06, 6.4059999999999993E-08, 190020.1421350663, 2.8493749999999983E-07
DataValue, -38.4, -1, 5.0467E-06, -5.044E-06, 1.7016E-07, 198255.35289452813, 2.6087499999999954E-07
DataValue, -37.6, -1, 4.8305000000000006E-06, -4.8452000000000006E-06, -3.222E-08, 206389.82910922146, 2.3743750000000055E-07
DataValue, -36.800000000000004, -1, 4.6599E-06, -4.6641000000000008E-06, -9.41E-08, 214403.63628567138, 2.3318749999999971E-07
DataValue, -36, -1, 4.4703E-06, -4.4721000000000008E-06, 4.444E-08, 223608.59551441154, 2.2693749999999977E-07
DataValue, -35.2, -1, 4.3002000000000008E-06, -4.3010000000000008E-06, 2.234E-08, 232504.06882120433, 2.1874999999999984E-07
DataValue, -34.4, -1, 4.1207E-06, -4.1221000000000007E-06, 9.4219999999999993E-08, 242594.79391572252, 2.1587499999999989E-07
DataValue, -33.6, -1, 3.9451000000000006E-06, -3.9556000000000007E-06, -4.5959999999999996E-08, 252806.14824552528, 1.9918750000000009E-07
DataValue, -32.8, -1, 3.7971000000000005E-06, -3.8034000000000003E-06, -3.036E-08, 262922.64815691224, 1.9293750000000018E-07
DataValue, -32, -1, 3.6418000000000004E-06, -3.6469E-06, -2.756E-07, 274205.48959390167, 2.0468750000000016E-07
DataValue, -31.2, -1, 3.4764000000000003E-06, -3.4759000000000005E-06, 2.152E-08, 287695.27316666185, 2.016875000000002E-07
DataValue, -30.400000000000002, -1, 3.3147000000000002E-06, -3.3242000000000003E-06, -7.578E-08, 300824.25846820284, 1.7600000000000023E-07
DataValue, -29.6, -1, 3.1875000000000004E-06, -3.1943000000000005E-06, -1.6392E-07, 313057.63391040283, 1.7724999999999992E-07
DataValue, -28.8, -1, 3.0449000000000003E-06, -3.0406E-06, 2.47E-08, 328882.45740972174, 1.8131249999999983E-07
DataValue, -28, -1, 2.9007000000000005E-06, -2.9042000000000005E-06, 9.73E-08, 344328.90296811506, 1.7206249999999967E-07
